#  HZ   S   DB   R     50.00 
! Rohde & Schwarz ZVB4 2Ports - Version 3.20 - 1145.1010k04 SN: 100175
! Date: 2015-11-30 18:45:16
! Measurement: S11 
! 
 1.950000000000000E9    -9.483271203894374   6.643792057049636E1  
 1.955000000000000E9    -9.299549176055937   6.018627216368483E1  
 1.960000000000000E9    -9.057227707909009   5.442643285573605E1  
 1.965000000000000E9    -8.783342015125067   4.925643718628798E1  
 1.970000000000000E9    -8.502143857044796   4.482853587563663E1  
 1.975000000000000E9    -8.231709188468576   4.102821496554014E1  
 1.980000000000000E9    -7.986781561095902   3.798301102330605E1  
 1.985000000000000E9    -7.773900806229582   3.554596519044677E1  
 1.990000000000000E9    -7.591681351078073   3.367778031944688E1  
 1.995000000000000E9    -7.450209457455483   3.227190751524096E1  
 2.000000000000000E9    -7.349256487272787   3.123968921143362E1  
 2.005000000000000E9    -7.293099909425441   3.054537716131607E1  
 2.010000000000000E9    -7.276827317003059   3.008737896009744E1  
 2.015000000000000E9    -7.298341976140735   2.978327223549071E1  
 2.020000000000000E9    -7.376109297722612   2.960751330794524E1  
 2.025000000000000E9    -7.497637649461221   2.954218929043467E1  
 2.030000000000000E9    -7.656967955304449   2.954912298283757E1  
 2.035000000000000E9    -7.844795997302723   2.957547143285147E1  
 2.040000000000000E9    -8.048337095479859   2.945001874671430E1  
 2.045000000000000E9    -8.280773032897653   2.907972061107065E1  
 2.050000000000000E9    -8.543810116692239   2.839111726672032E1  
 2.055000000000000E9    -8.822127495570477   2.728178918949679E1  
 2.060000000000000E9    -9.128749365774402   2.566465818836224E1  
 2.065000000000000E9    -9.434573463050949   2.358829334822278E1  
 2.070000000000000E9    -9.728991522130345   2.082579462241668E1  
 2.075000000000000E9    -1.000165723253784E1   1.728739655988445E1  
 2.080000000000000E9    -1.021637383198019E1   1.302777238264760E1  
 2.085000000000000E9    -1.036000189015527E1   8.015304653833827  
 2.090000000000000E9    -1.040767496402749E1   2.394692606880506  
 2.095000000000000E9    -1.034471731462247E1  -3.617189590514290  
 2.100000000000000E9    -1.017037318644002E1  -9.823556211026215  
 2.105000000000000E9    -9.906642980934457  -1.587133142757366E1  
 2.110000000000000E9    -9.566668662525077  -2.156063224172864E1  
 2.115000000000000E9    -9.191055534453874  -2.670179792236159E1  
 2.120000000000000E9    -8.795675160758940  -3.116227029472939E1  
 2.125000000000000E9    -8.403904561802618  -3.502564204827073E1  
 2.130000000000000E9    -8.033207670536489  -3.828543694178411E1  
 2.135000000000000E9    -7.700968702084908  -4.104983445590797E1  
 2.140000000000000E9    -7.417071277029369  -4.340956389631753E1  
 2.145000000000000E9    -7.192489586029424  -4.541897228369849E1  
 2.150000000000000E9    -7.042054995125287  -4.709557484714377E1  
 2.155000000000000E9    -6.950556216418498  -4.847739015020969E1  
 2.160000000000000E9    -6.924484262194991  -4.968595877041026E1  
 2.165000000000000E9    -6.961813771105059  -5.073435913892433E1  
 2.170000000000000E9    -7.055022955038823  -5.169710757644971E1  
 2.175000000000000E9    -7.213131795095391  -5.275074873693595E1  
 2.180000000000000E9    -7.436374524607734  -5.396527509015977E1  
 2.185000000000000E9    -7.732156183067508  -5.531694915181659E1  
 2.190000000000000E9    -8.093050767681993  -5.705842569222436E1  
 2.195000000000000E9    -8.532445600116054  -5.913655567636366E1  
 2.200000000000000E9    -9.046056344771849  -6.176993881876103E1  
 2.205000000000000E9    -9.617957644499526  -6.503156701591003E1  
 2.210000000000000E9    -1.024128438730556E1  -6.926049949696302E1  
 2.215000000000000E9    -1.091760136102756E1  -7.453992525818985E1  
 2.220000000000000E9    -1.159897384147174E1  -8.095779243052762E1  
 2.225000000000000E9    -1.224149011659996E1  -8.855246038576520E1  
 2.230000000000000E9    -1.276467093726778E1  -9.713002347827958E1  
 2.235000000000000E9    -1.310236060422832E1  -1.064444257390088E2  
 2.240000000000000E9    -1.321133679431212E1  -1.158806742852819E2  
 2.245000000000000E9    -1.313464570998159E1  -1.247458609183321E2  
 2.250000000000000E9    -1.291979781493069E1  -1.325239183056393E2  
 2.255000000000000E9    -1.261731358151144E1  -1.387651142443264E2  
 2.260000000000000E9    -1.227508824207304E1  -1.435471507042595E2  
 2.265000000000000E9    -1.191364966110276E1  -1.471249230354007E2  
 2.270000000000000E9    -1.160556607255799E1  -1.497772728936380E2  
 2.275000000000000E9    -1.134301158608386E1  -1.515041773251346E2  
 2.280000000000000E9    -1.114004489478961E1  -1.525760076993276E2  
 2.285000000000000E9    -1.100395381921217E1  -1.530945855040574E2  
 2.290000000000000E9    -1.093953582359324E1  -1.532054534206154E2  
 2.295000000000000E9    -1.094239936166624E1  -1.530044692066550E2  
 2.300000000000000E9    -1.102336889454742E1  -1.526016253974360E2  
 2.305000000000000E9    -1.118743974394912E1  -1.520948035888348E2  
 2.310000000000000E9    -1.145066026888516E1  -1.514646834810714E2  
 2.315000000000000E9    -1.180763816918245E1  -1.507701737512856E2  
 2.320000000000000E9    -1.227738629230829E1  -1.500435792890568E2  
 2.325000000000000E9    -1.285600504907453E1  -1.493343827228870E2  
 2.330000000000000E9    -1.354292589959180E1  -1.489040800131228E2  
 2.335000000000000E9    -1.438016779387930E1  -1.488685195107048E2  
 2.340000000000000E9    -1.541879697215581E1  -1.496475911295409E2  
 2.345000000000000E9    -1.671389067280509E1  -1.513381720195413E2  
 2.350000000000000E9    -1.832399997770202E1  -1.545594344493692E2  
 2.355000000000000E9    -2.033427834151034E1  -1.607370813776732E2  
 2.360000000000000E9    -2.276908151977844E1  -1.725060113497583E2  
 2.365000000000000E9    -2.519426827512576E1   1.648714466853377E2  
 2.370000000000000E9    -2.570477471732664E1   1.311812476715954E2  
 2.375000000000000E9    -2.372442867171705E1   1.036606264075451E2  
 2.380000000000000E9    -2.123113043082148E1   8.847500411621489E1  
 2.385000000000000E9    -1.913642310323405E1   8.022990113404730E1  
 2.390000000000000E9    -1.748714689108672E1   7.538990644144597E1  
 2.395000000000000E9    -1.618419134566421E1   7.227514531004738E1  
 2.400000000000000E9    -1.517580148211758E1   6.991407630254481E1  
 2.405000000000000E9    -1.442824763287562E1   6.788245845117567E1  
 2.410000000000000E9    -1.392507958159439E1   6.608360642551752E1  
 2.415000000000000E9    -1.360942692141998E1   6.431498814222417E1  
 2.420000000000000E9    -1.347964200430853E1   6.261438697315041E1  
 2.425000000000000E9    -1.350868977406783E1   6.058114499538700E1  
 2.430000000000000E9    -1.368282054636797E1   5.801773952475326E1  
 2.435000000000000E9    -1.401313551375283E1   5.458307367347550E1  
 2.440000000000000E9    -1.452104472009406E1   5.013509300699679E1  
 2.445000000000000E9    -1.516289954908856E1   4.433178437118291E1  
 2.450000000000000E9    -1.587586516900631E1   3.667388219360141E1  
 2.455000000000000E9    -1.650878559966729E1   2.649194286278006E1  
 2.460000000000000E9    -1.687152099016356E1   1.367147080405898E1  
 2.465000000000000E9    -1.676380265644173E1  -1.200121469156408  
 2.470000000000000E9    -1.613290351295760E1  -1.596064669795386E1  
 2.475000000000000E9    -1.509376937343130E1  -2.864345264998016E1  
 2.480000000000000E9    -1.387651110038195E1  -3.857588390146972E1  
 2.485000000000000E9    -1.265409959686136E1  -4.613841797633834E1  
 2.490000000000000E9    -1.151126279494930E1  -5.180565968618367E1  
 2.495000000000000E9    -1.048478532860890E1  -5.596109984898593E1  
 2.500000000000000E9    -9.587060235651437  -5.902535013799805E1  
 2.505000000000000E9    -8.814605611433667  -6.129010768557137E1  
 2.510000000000000E9    -8.152562911667785  -6.290156552449308E1  
 2.515000000000000E9    -7.587920996881944  -6.401698019049466E1  
 2.520000000000000E9    -7.103362425460109  -6.480206356275460E1  
 2.525000000000000E9    -6.710842697915498  -6.530292412786210E1  
 2.530000000000000E9    -6.382922753080353  -6.560758673090102E1  
 2.535000000000000E9    -6.113302799828810  -6.574795227915952E1  
 2.540000000000000E9    -5.894078821742466  -6.584931116804113E1  
 2.545000000000000E9    -5.725455592578023  -6.602153300281286E1  
 2.550000000000000E9    -5.603384040999045  -6.623385450267617E1  
 2.555000000000000E9    -5.521427849365828  -6.661459853292102E1  
 2.560000000000000E9    -5.475889930716061  -6.714391946114101E1  
 2.565000000000000E9    -5.449855325559795  -6.796134671995600E1  
 2.570000000000000E9    -5.446580126774275  -6.910521323292554E1  
 2.575000000000000E9    -5.454058339808229  -7.065419593444831E1  
 2.580000000000000E9    -5.461156702015060  -7.264080141298564E1  
 2.585000000000000E9    -5.461860447621762  -7.519900215945252E1  
 2.590000000000000E9    -5.456178428881262  -7.828883392253991E1  
 2.595000000000000E9    -5.428927054772563  -8.190551453607343E1  
 2.600000000000000E9    -5.366965376877984  -8.590430379427561E1  
 2.605000000000000E9    -5.258136458111569  -9.026934899922280E1  
 2.610000000000000E9    -5.097235329058806  -9.491696133645721E1  
 2.615000000000000E9    -4.893185246602331  -9.967388166447076E1  
 2.620000000000000E9    -4.647945173162543  -1.043363870353623E2  
 2.625000000000000E9    -4.369941309868301  -1.087776692759902E2  
 2.630000000000000E9    -4.069956304354071  -1.129204059659913E2  
 2.635000000000000E9    -3.760527702168997  -1.167165062794218E2  
 2.640000000000000E9    -3.460942070592400  -1.200548347772923E2  
 2.645000000000000E9    -3.171397216560951  -1.229321209057845E2  
 2.650000000000000E9    -2.909308474726304  -1.253173492917664E2  
 2.655000000000000E9    -2.668634614699135  -1.272789125451291E2  
 2.660000000000000E9    -2.451281564914101  -1.288206113080040E2  
 2.665000000000000E9    -2.263496258428841  -1.300114290579772E2  
 2.670000000000000E9    -2.100361372744842  -1.308771940930567E2  
 2.675000000000000E9    -1.967659410156231  -1.314603761325232E2  
 2.680000000000000E9    -1.859656822654189  -1.318466288239339E2  
 2.685000000000000E9    -1.772644301985842  -1.320389385246901E2  
 2.690000000000000E9    -1.706643785769960  -1.320833010351384E2  
 2.695000000000000E9    -1.657720582916678  -1.320661545419070E2  
 2.700000000000000E9    -1.630808412953750  -1.320335103551709E2  
 2.705000000000000E9    -1.615473927415503  -1.320202948601070E2  
 2.710000000000000E9    -1.616512720644421  -1.320739185722048E2  
 2.715000000000000E9    -1.627480539329172  -1.322611751181933E2  
 2.720000000000000E9    -1.649736092970058  -1.326379780256021E2  
 2.725000000000000E9    -1.682673244888470  -1.332228379453231E2  
 2.730000000000000E9    -1.724038070705042  -1.340583109428024E2  
 2.735000000000000E9    -1.771540896543221  -1.351904545542694E2  
 2.740000000000000E9    -1.820029194555174  -1.366519308956175E2  
 2.745000000000000E9    -1.869685817739626  -1.384419964059764E2  
 2.750000000000000E9    -1.915810352930546  -1.405831937453582E2  
 2.755000000000000E9    -1.952809808386986  -1.430507960573435E2  
 2.760000000000000E9    -1.977404989313053  -1.458058338476639E2  
 2.765000000000000E9    -1.985015723692506  -1.488280296311647E2  
 2.770000000000000E9    -1.976186920173235  -1.520080973716179E2  
 2.775000000000000E9    -1.949411276557747  -1.552704364436349E2  
 2.780000000000000E9    -1.906824949140923  -1.584851195127947E2  
 2.785000000000000E9    -1.842273184907295  -1.616151350895723E2  
 2.790000000000000E9    -1.760746602710814  -1.645307512090412E2  
 2.795000000000000E9    -1.665933218972273  -1.672129233391129E2  
 2.800000000000000E9    -1.568684051109188  -1.695722228911395E2  
 2.805000000000000E9    -1.465809702913121  -1.715656536717904E2  
 2.810000000000000E9    -1.365086832529196  -1.732275706781713E2  
 2.815000000000000E9    -1.269371815753720  -1.744951726106626E2  
 2.820000000000000E9    -1.176838251373648  -1.754451960823855E2  
 2.825000000000000E9    -1.090793387019072  -1.760919800285475E2  
 2.830000000000000E9    -1.013074428348264  -1.764297954573772E2  
 2.835000000000000E9    -9.452875299891522E-1  -1.765760511646903E2  
 2.840000000000000E9    -8.911685808707732E-1  -1.764971280080170E2  
 2.845000000000000E9    -8.456157405665890E-1  -1.762353470344493E2  
 2.850000000000000E9    -8.125931201960724E-1  -1.758595449722545E2  
 2.855000000000000E9    -7.890534134967236E-1  -1.754061647198169E2  
 2.860000000000000E9    -7.763299046278853E-1  -1.748960603041956E2  
 2.865000000000000E9    -7.733322245249508E-1  -1.744237039559275E2  
 2.870000000000000E9    -7.812215646929792E-1  -1.739881908399299E2  
 2.875000000000000E9    -7.988719624046404E-1  -1.736451456258473E2  
 2.880000000000000E9    -8.299383727808116E-1  -1.734482000555403E2  
 2.885000000000000E9    -8.667902270928221E-1  -1.734073492773066E2  
 2.890000000000000E9    -9.172927010207443E-1  -1.735938870073268E2  
 2.895000000000000E9    -9.707146617754336E-1  -1.740249691737666E2  
 2.900000000000000E9    -1.032732003460518  -1.747558116219293E2  
 2.905000000000000E9    -1.098655852751315  -1.758142825454343E2  
 2.910000000000000E9    -1.166833569717744  -1.771864211867397E2  
 2.915000000000000E9    -1.235267843450439  -1.789273667388481E2  
 2.920000000000000E9    -1.299738633089202   1.789921432461172E2  
 2.925000000000000E9    -1.360854061236587   1.765940025837405E2  
 2.930000000000000E9    -1.409797000692258   1.739139298376451E2  
 2.935000000000000E9    -1.445398632274831   1.710260324882347E2  
 2.940000000000000E9    -1.464128053761393   1.679959067883422E2  
 2.945000000000000E9    -1.463540083542219   1.649234109834712E2  
 2.950000000000000E9    -1.441930845288591   1.618662102010180E2  
