# Version 1.00
#
freq[Hz];db:Trc1_S11;ang:Trc1_S11;db:Trc2_S11;ang:Trc2_S11;db:Trc3_S11;ang:Trc3_S11;db:Trc4_S11;ang:Trc4_S11;
1.950000000000000E+009;-4.638185321238239E+000;-8.631205266750121E+001;-4.638185321238239E+000;-8.631205266750121E+001;-4.638185321238239E+000;-8.631205266750121E+001;-4.638185321238239E+000;-8.631205266750121E+001;
1.955000000000000E+009;-4.719651554673275E+000;-8.648247178026334E+001;-4.719651554673275E+000;-8.648247178026334E+001;-4.719651554673275E+000;-8.648247178026334E+001;-4.719651554673275E+000;-8.648247178026334E+001;
1.960000000000000E+009;-4.840729645148678E+000;-8.659720556376821E+001;-4.840729645148678E+000;-8.659720556376821E+001;-4.840729645148678E+000;-8.659720556376821E+001;-4.840729645148678E+000;-8.659720556376821E+001;
1.965000000000000E+009;-5.001100369850863E+000;-8.670321356044663E+001;-5.001100369850863E+000;-8.670321356044663E+001;-5.001100369850863E+000;-8.670321356044663E+001;-5.001100369850863E+000;-8.670321356044663E+001;
1.970000000000000E+009;-5.197814511604043E+000;-8.677487309293181E+001;-5.197814511604043E+000;-8.677487309293181E+001;-5.197814511604043E+000;-8.677487309293181E+001;-5.197814511604043E+000;-8.677487309293181E+001;
1.975000000000000E+009;-5.430367064597100E+000;-8.683043047125636E+001;-5.430367064597100E+000;-8.683043047125636E+001;-5.430367064597100E+000;-8.683043047125636E+001;-5.430367064597100E+000;-8.683043047125636E+001;
1.980000000000000E+009;-5.701075283050495E+000;-8.705730814335685E+001;-5.701075283050495E+000;-8.705730814335685E+001;-5.701075283050495E+000;-8.705730814335685E+001;-5.701075283050495E+000;-8.705730814335685E+001;
1.985000000000000E+009;-6.016391915890342E+000;-8.734235377229348E+001;-6.016391915890342E+000;-8.734235377229348E+001;-6.016391915890342E+000;-8.734235377229348E+001;-6.016391915890342E+000;-8.734235377229348E+001;
1.990000000000000E+009;-6.355815532702827E+000;-8.771172811121959E+001;-6.355815532702827E+000;-8.771172811121959E+001;-6.355815532702827E+000;-8.771172811121959E+001;-6.355815532702827E+000;-8.771172811121959E+001;
1.995000000000000E+009;-6.728243509970878E+000;-8.828189943364507E+001;-6.728243509970878E+000;-8.828189943364507E+001;-6.728243509970878E+000;-8.828189943364507E+001;-6.728243509970878E+000;-8.828189943364507E+001;
2.000000000000000E+009;-7.123151495188361E+000;-8.903920424184932E+001;-7.123151495188361E+000;-8.903920424184932E+001;-7.123151495188361E+000;-8.903920424184932E+001;-7.123151495188361E+000;-8.903920424184932E+001;
2.005000000000000E+009;-7.545984587975895E+000;-8.997632679420262E+001;-7.545984587975895E+000;-8.997632679420262E+001;-7.545984587975895E+000;-8.997632679420262E+001;-7.545984587975895E+000;-8.997632679420262E+001;
2.010000000000000E+009;-7.956909975852788E+000;-9.116875247947235E+001;-7.956909975852788E+000;-9.116875247947235E+001;-7.956909975852788E+000;-9.116875247947235E+001;-7.956909975852788E+000;-9.116875247947235E+001;
2.015000000000000E+009;-8.348537867926082E+000;-9.265829677867001E+001;-8.348537867926082E+000;-9.265829677867001E+001;-8.348537867926082E+000;-9.265829677867001E+001;-8.348537867926082E+000;-9.265829677867001E+001;
2.020000000000000E+009;-8.696138710156774E+000;-9.452517680536424E+001;-8.696138710156774E+000;-9.452517680536424E+001;-8.696138710156774E+000;-9.452517680536424E+001;-8.696138710156774E+000;-9.452517680536424E+001;
2.025000000000000E+009;-8.984621174395720E+000;-9.695310516639326E+001;-8.984621174395720E+000;-9.695310516639326E+001;-8.984621174395720E+000;-9.695310516639326E+001;-8.984621174395720E+000;-9.695310516639326E+001;
2.030000000000000E+009;-9.212102170303238E+000;-9.993180437498437E+001;-9.212102170303238E+000;-9.993180437498437E+001;-9.212102170303238E+000;-9.993180437498437E+001;-9.212102170303238E+000;-9.993180437498437E+001;
2.035000000000000E+009;-9.384826847231192E+000;-1.033592410961941E+002;-9.384826847231192E+000;-1.033592410961941E+002;-9.384826847231192E+000;-1.033592410961941E+002;-9.384826847231192E+000;-1.033592410961941E+002;
2.040000000000000E+009;-9.489084667812703E+000;-1.070853089417251E+002;-9.489084667812703E+000;-1.070853089417251E+002;-9.489084667812703E+000;-1.070853089417251E+002;-9.489084667812703E+000;-1.070853089417251E+002;
2.045000000000000E+009;-9.517433490669909E+000;-1.108346348976150E+002;-9.517433490669909E+000;-1.108346348976150E+002;-9.517433490669909E+000;-1.108346348976150E+002;-9.517433490669909E+000;-1.108346348976150E+002;
2.050000000000000E+009;-9.454560716207940E+000;-1.145567355684800E+002;-9.454560716207940E+000;-1.145567355684800E+002;-9.454560716207940E+000;-1.145567355684800E+002;-9.454560716207940E+000;-1.145567355684800E+002;
2.055000000000000E+009;-9.323318674432446E+000;-1.180637276984070E+002;-9.323318674432446E+000;-1.180637276984070E+002;-9.323318674432446E+000;-1.180637276984070E+002;-9.323318674432446E+000;-1.180637276984070E+002;
2.060000000000000E+009;-9.125270539860628E+000;-1.211762990826615E+002;-9.125270539860628E+000;-1.211762990826615E+002;-9.125270539860628E+000;-1.211762990826615E+002;-9.125270539860628E+000;-1.211762990826615E+002;
2.065000000000000E+009;-8.877856995508733E+000;-1.239617851398869E+002;-8.877856995508733E+000;-1.239617851398869E+002;-8.877856995508733E+000;-1.239617851398869E+002;-8.877856995508733E+000;-1.239617851398869E+002;
2.070000000000000E+009;-8.601674220222964E+000;-1.263328960815310E+002;-8.601674220222964E+000;-1.263328960815310E+002;-8.601674220222964E+000;-1.263328960815310E+002;-8.601674220222964E+000;-1.263328960815310E+002;
2.075000000000000E+009;-8.314854376231544E+000;-1.282385397742992E+002;-8.314854376231544E+000;-1.282385397742992E+002;-8.314854376231544E+000;-1.282385397742992E+002;-8.314854376231544E+000;-1.282385397742992E+002;
2.080000000000000E+009;-8.026090925837613E+000;-1.297775754926208E+002;-8.026090925837613E+000;-1.297775754926208E+002;-8.026090925837613E+000;-1.297775754926208E+002;-8.026090925837613E+000;-1.297775754926208E+002;
2.085000000000000E+009;-7.766212208366614E+000;-1.309642033684246E+002;-7.766212208366614E+000;-1.309642033684246E+002;-7.766212208366614E+000;-1.309642033684246E+002;-7.766212208366614E+000;-1.309642033684246E+002;
2.090000000000000E+009;-7.531965539161017E+000;-1.317818084469693E+002;-7.531965539161017E+000;-1.317818084469693E+002;-7.531965539161017E+000;-1.317818084469693E+002;-7.531965539161017E+000;-1.317818084469693E+002;
2.095000000000000E+009;-7.324760241497041E+000;-1.321893354822367E+002;-7.324760241497041E+000;-1.321893354822367E+002;-7.324760241497041E+000;-1.321893354822367E+002;-7.324760241497041E+000;-1.321893354822367E+002;
2.100000000000000E+009;-7.143906921078645E+000;-1.324170696211763E+002;-7.143906921078645E+000;-1.324170696211763E+002;-7.143906921078645E+000;-1.324170696211763E+002;-7.143906921078645E+000;-1.324170696211763E+002;
2.105000000000000E+009;-7.004967610843041E+000;-1.324541183819852E+002;-7.004967610843041E+000;-1.324541183819852E+002;-7.004967610843041E+000;-1.324541183819852E+002;-7.004967610843041E+000;-1.324541183819852E+002;
2.110000000000000E+009;-6.910104717835714E+000;-1.323061095733845E+002;-6.910104717835714E+000;-1.323061095733845E+002;-6.910104717835714E+000;-1.323061095733845E+002;-6.910104717835714E+000;-1.323061095733845E+002;
2.115000000000000E+009;-6.866897285730623E+000;-1.320565482016962E+002;-6.866897285730623E+000;-1.320565482016962E+002;-6.866897285730623E+000;-1.320565482016962E+002;-6.866897285730623E+000;-1.320565482016962E+002;
2.120000000000000E+009;-6.880768463908388E+000;-1.315977771785895E+002;-6.880768463908388E+000;-1.315977771785895E+002;-6.880768463908388E+000;-1.315977771785895E+002;-6.880768463908388E+000;-1.315977771785895E+002;
2.125000000000000E+009;-6.948023725636344E+000;-1.309797769552132E+002;-6.948023725636344E+000;-1.309797769552132E+002;-6.948023725636344E+000;-1.309797769552132E+002;-6.948023725636344E+000;-1.309797769552132E+002;
2.130000000000000E+009;-7.051832745772248E+000;-1.301799279794731E+002;-7.051832745772248E+000;-1.301799279794731E+002;-7.051832745772248E+000;-1.301799279794731E+002;-7.051832745772248E+000;-1.301799279794731E+002;
2.135000000000000E+009;-7.185560305798324E+000;-1.292805836060224E+002;-7.185560305798324E+000;-1.292805836060224E+002;-7.185560305798324E+000;-1.292805836060224E+002;-7.185560305798324E+000;-1.292805836060224E+002;
2.140000000000000E+009;-7.346283584395659E+000;-1.283557327711736E+002;-7.346283584395659E+000;-1.283557327711736E+002;-7.346283584395659E+000;-1.283557327711736E+002;-7.346283584395659E+000;-1.283557327711736E+002;
2.145000000000000E+009;-7.535626203907150E+000;-1.275035926756119E+002;-7.535626203907150E+000;-1.275035926756119E+002;-7.535626203907150E+000;-1.275035926756119E+002;-7.535626203907150E+000;-1.275035926756119E+002;
2.150000000000000E+009;-7.759454232625410E+000;-1.267101636509692E+002;-7.759454232625410E+000;-1.267101636509692E+002;-7.759454232625410E+000;-1.267101636509692E+002;-7.759454232625410E+000;-1.267101636509692E+002;
2.155000000000000E+009;-7.996342311087282E+000;-1.260543072257509E+002;-7.996342311087282E+000;-1.260543072257509E+002;-7.996342311087282E+000;-1.260543072257509E+002;-7.996342311087282E+000;-1.260543072257509E+002;
2.160000000000000E+009;-8.245602489787324E+000;-1.256321664919778E+002;-8.245602489787324E+000;-1.256321664919778E+002;-8.245602489787324E+000;-1.256321664919778E+002;-8.245602489787324E+000;-1.256321664919778E+002;
2.165000000000000E+009;-8.504861050407635E+000;-1.255953087109085E+002;-8.504861050407635E+000;-1.255953087109085E+002;-8.504861050407635E+000;-1.255953087109085E+002;-8.504861050407635E+000;-1.255953087109085E+002;
2.170000000000000E+009;-8.780273071957485E+000;-1.260952680511258E+002;-8.780273071957485E+000;-1.260952680511258E+002;-8.780273071957485E+000;-1.260952680511258E+002;-8.780273071957485E+000;-1.260952680511258E+002;
2.175000000000000E+009;-9.080779414838446E+000;-1.270851120599477E+002;-9.080779414838446E+000;-1.270851120599477E+002;-9.080779414838446E+000;-1.270851120599477E+002;-9.080779414838446E+000;-1.270851120599477E+002;
2.180000000000000E+009;-9.382612092055622E+000;-1.286144846009023E+002;-9.382612092055622E+000;-1.286144846009023E+002;-9.382612092055622E+000;-1.286144846009023E+002;-9.382612092055622E+000;-1.286144846009023E+002;
2.185000000000000E+009;-9.674870366415005E+000;-1.306795467298053E+002;-9.674870366415005E+000;-1.306795467298053E+002;-9.674870366415005E+000;-1.306795467298053E+002;-9.674870366415005E+000;-1.306795467298053E+002;
2.190000000000000E+009;-9.941959374613655E+000;-1.334613091684413E+002;-9.941959374613655E+000;-1.334613091684413E+002;-9.941959374613655E+000;-1.334613091684413E+002;-9.941959374613655E+000;-1.334613091684413E+002;
2.195000000000000E+009;-1.017858880638277E+001;-1.367837066093057E+002;-1.017858880638277E+001;-1.367837066093057E+002;-1.017858880638277E+001;-1.367837066093057E+002;-1.017858880638277E+001;-1.367837066093057E+002;
2.200000000000000E+009;-1.035229918949063E+001;-1.405337971015520E+002;-1.035229918949063E+001;-1.405337971015520E+002;-1.035229918949063E+001;-1.405337971015520E+002;-1.035016093910976E+001;-1.405479051747254E+002;
2.205000000000000E+009;-1.041686563975421E+001;-1.445940459919007E+002;-1.041686563975421E+001;-1.445940459919007E+002;-1.041686563975421E+001;-1.445940459919007E+002;-1.041686563975421E+001;-1.445940459919007E+002;
2.210000000000000E+009;-1.037249001275861E+001;-1.489993991239577E+002;-1.037249001275861E+001;-1.489993991239577E+002;-1.037249001275861E+001;-1.489993991239577E+002;-1.037249001275861E+001;-1.489993991239577E+002;
2.215000000000000E+009;-1.024303563545951E+001;-1.535080688674771E+002;-1.024303563545951E+001;-1.535080688674771E+002;-1.024303563545951E+001;-1.535080688674771E+002;-1.024303563545951E+001;-1.535080688674771E+002;
2.220000000000000E+009;-1.003396661047974E+001;-1.577963388405746E+002;-1.003396661047974E+001;-1.577963388405746E+002;-1.003396661047974E+001;-1.577963388405746E+002;-1.003396661047974E+001;-1.577963388405746E+002;
2.225000000000000E+009;-9.766602886342966E+000;-1.617376907532536E+002;-9.766602886342966E+000;-1.617376907532536E+002;-9.766602886342966E+000;-1.617376907532536E+002;-9.766602886342966E+000;-1.617376907532536E+002;
2.230000000000000E+009;-9.456660588095343E+000;-1.652107997167047E+002;-9.456660588095343E+000;-1.652107997167047E+002;-9.456660588095343E+000;-1.652107997167047E+002;-9.456660588095343E+000;-1.652107997167047E+002;
2.235000000000000E+009;-9.135912717568118E+000;-1.681064760719197E+002;-9.135912717568118E+000;-1.681064760719197E+002;-9.135912717568118E+000;-1.681064760719197E+002;-9.135912717568118E+000;-1.681064760719197E+002;
2.240000000000000E+009;-8.808723692511554E+000;-1.703690868037229E+002;-8.808723692511554E+000;-1.703690868037229E+002;-8.808723692511554E+000;-1.703690868037229E+002;-8.808723692511554E+000;-1.703690868037229E+002;
2.245000000000000E+009;-8.486968894234749E+000;-1.721255652033115E+002;-8.486968894234749E+000;-1.721255652033115E+002;-8.486968894234749E+000;-1.721255652033115E+002;-8.486968894234749E+000;-1.721255652033115E+002;
2.250000000000000E+009;-8.202406638876573E+000;-1.734302763982597E+002;-8.202406638876573E+000;-1.734302763982597E+002;-8.202406638876573E+000;-1.734302763982597E+002;-8.202406638876573E+000;-1.734302763982597E+002;
2.255000000000000E+009;-7.951055792298120E+000;-1.741117102567448E+002;-7.951055792298120E+000;-1.741117102567448E+002;-7.951055792298120E+000;-1.741117102567448E+002;-7.951055792298120E+000;-1.741117102567448E+002;
2.260000000000000E+009;-7.726280631852903E+000;-1.743356029876460E+002;-7.726280631852903E+000;-1.743356029876460E+002;-7.726280631852903E+000;-1.743356029876460E+002;-7.726280631852903E+000;-1.743356029876460E+002;
2.265000000000000E+009;-7.522750319317473E+000;-1.741350298832377E+002;-7.522750319317473E+000;-1.741350298832377E+002;-7.522750319317473E+000;-1.741350298832377E+002;-7.522750319317473E+000;-1.741350298832377E+002;
2.270000000000000E+009;-7.334722342484040E+000;-1.737056444579247E+002;-7.334722342484040E+000;-1.737056444579247E+002;-7.334722342484040E+000;-1.737056444579247E+002;-7.334722342484040E+000;-1.737056444579247E+002;
2.275000000000000E+009;-7.189296474776580E+000;-1.731834627479302E+002;-7.189296474776580E+000;-1.731834627479302E+002;-7.189296474776580E+000;-1.731834627479302E+002;-7.189296474776580E+000;-1.731834627479302E+002;
2.280000000000000E+009;-7.098058268167264E+000;-1.724826219375412E+002;-7.098058268167264E+000;-1.724826219375412E+002;-7.098058268167264E+000;-1.724826219375412E+002;-7.098058268167264E+000;-1.724826219375412E+002;
2.285000000000000E+009;-7.060439515926106E+000;-1.715435794439833E+002;-7.060439515926106E+000;-1.715435794439833E+002;-7.060439515926106E+000;-1.715435794439833E+002;-7.060439515926106E+000;-1.715435794439833E+002;
2.290000000000000E+009;-7.054231055816470E+000;-1.703560064066471E+002;-7.054231055816470E+000;-1.703560064066471E+002;-7.054231055816470E+000;-1.703560064066471E+002;-7.054231055816470E+000;-1.703560064066471E+002;
2.295000000000000E+009;-7.069849179592532E+000;-1.690464474408943E+002;-7.069849179592532E+000;-1.690464474408943E+002;-7.069849179592532E+000;-1.690464474408943E+002;-7.069849179592532E+000;-1.690464474408943E+002;
2.300000000000000E+009;-7.092854028146037E+000;-1.677460474482664E+002;-7.092854028146037E+000;-1.677460474482664E+002;-7.092854028146037E+000;-1.677460474482664E+002;-7.092854028146037E+000;-1.677460474482664E+002;
2.305000000000000E+009;-7.143247914873784E+000;-1.666439462148792E+002;-7.143247914873784E+000;-1.666439462148792E+002;-7.143247914873784E+000;-1.666439462148792E+002;-7.143247914873784E+000;-1.666439462148792E+002;
2.310000000000000E+009;-7.244314696587303E+000;-1.658023822791879E+002;-7.244314696587303E+000;-1.658023822791879E+002;-7.244314696587303E+000;-1.658023822791879E+002;-7.244314696587303E+000;-1.658023822791879E+002;
2.315000000000000E+009;-7.422915983363468E+000;-1.651622774256783E+002;-7.422915983363468E+000;-1.651622774256783E+002;-7.422915983363468E+000;-1.651622774256783E+002;-7.422915983363468E+000;-1.651622774256783E+002;
2.320000000000000E+009;-7.680692235333914E+000;-1.644544340889576E+002;-7.680692235333914E+000;-1.644544340889576E+002;-7.680692235333914E+000;-1.644544340889576E+002;-7.680692235333914E+000;-1.644544340889576E+002;
2.325000000000000E+009;-7.970048408080401E+000;-1.636183894176277E+002;-7.970048408080401E+000;-1.636183894176277E+002;-7.970048408080401E+000;-1.636183894176277E+002;-7.970048408080401E+000;-1.636183894176277E+002;
2.330000000000000E+009;-8.260047131758860E+000;-1.628867704445035E+002;-8.260047131758860E+000;-1.628867704445035E+002;-8.260047131758860E+000;-1.628867704445035E+002;-8.260047131758860E+000;-1.628867704445035E+002;
2.335000000000000E+009;-8.553563721451180E+000;-1.624942355853397E+002;-8.553563721451180E+000;-1.624942355853397E+002;-8.553563721451180E+000;-1.624942355853397E+002;-8.553563721451180E+000;-1.624942355853397E+002;
2.340000000000000E+009;-8.859820841361970E+000;-1.626767144835598E+002;-8.859820841361970E+000;-1.626767144835598E+002;-8.859820841361970E+000;-1.626767144835598E+002;-8.859820841361970E+000;-1.626767144835598E+002;
2.345000000000000E+009;-9.198483569402191E+000;-1.635507908877963E+002;-9.198483569402191E+000;-1.635507908877963E+002;-9.198483569402191E+000;-1.635507908877963E+002;-9.198483569402191E+000;-1.635507908877963E+002;
2.350000000000000E+009;-9.605141962729514E+000;-1.650535043754234E+002;-9.605141962729514E+000;-1.650535043754234E+002;-9.605141962729514E+000;-1.650535043754234E+002;-9.605141962729514E+000;-1.650535043754234E+002;
2.355000000000000E+009;-1.005837106080064E+001;-1.667872090579896E+002;-1.005837106080064E+001;-1.667872090579896E+002;-1.005837106080064E+001;-1.667872090579896E+002;-1.005837106080064E+001;-1.667872090579896E+002;
2.360000000000000E+009;-1.048862679823677E+001;-1.688743134615116E+002;-1.048862679823677E+001;-1.688743134615116E+002;-1.048862679823677E+001;-1.688743134615116E+002;-1.048862679823677E+001;-1.688743134615116E+002;
2.365000000000000E+009;-1.085340331367536E+001;-1.713573045982490E+002;-1.085340331367536E+001;-1.713573045982490E+002;-1.085340331367536E+001;-1.713573045982490E+002;-1.085340331367536E+001;-1.713573045982490E+002;
2.370000000000000E+009;-1.109549884436695E+001;-1.744847166720474E+002;-1.109549884436695E+001;-1.744847166720474E+002;-1.109549884436695E+001;-1.744847166720474E+002;-1.109549884436695E+001;-1.744847166720474E+002;
2.375000000000000E+009;-1.123120334247848E+001;-1.786593720687100E+002;-1.123120334247848E+001;-1.786593720687100E+002;-1.123120334247848E+001;-1.786593720687100E+002;-1.123120334247848E+001;-1.786593720687100E+002;
2.380000000000000E+009;-1.133016682599282E+001;1.763831078862791E+002;-1.133016682599282E+001;1.763831078862791E+002;-1.133016682599282E+001;1.763831078862791E+002;-1.133016682599282E+001;1.763831078862791E+002;
2.385000000000000E+009;-1.141533493512770E+001;1.713647455942932E+002;-1.141533493512770E+001;1.713647455942932E+002;-1.141533493512770E+001;1.713647455942932E+002;-1.141533493512770E+001;1.713647455942932E+002;
2.390000000000000E+009;-1.145523424252948E+001;1.670533375549505E+002;-1.145523424252948E+001;1.670533375549505E+002;-1.145523424252948E+001;1.670533375549505E+002;-1.145523424252948E+001;1.670533375549505E+002;
2.395000000000000E+009;-1.136817464838870E+001;1.636177945384086E+002;-1.136817464838870E+001;1.636177945384086E+002;-1.136817464838870E+001;1.636177945384086E+002;-1.136817464838870E+001;1.636177945384086E+002;
2.400000000000000E+009;-1.115288239015139E+001;1.608975510607236E+002;-1.115288239015139E+001;1.608975510607236E+002;-1.115288239015139E+001;1.608975510607236E+002;-1.115288239015139E+001;1.608975510607236E+002;
