#  HZ   S   DB   R     50.00 
! Rohde & Schwarz ZVB4 2Ports - Version 3.20 - 1145.1010k04 SN: 100175
! Date: 2015-12-02 18:26:35
! Measurement: S11 
! 
 1.950000000000000E9    -4.611846878411423  -8.628804005880265E1  
 1.955000000000000E9    -4.691784006801338  -8.651167531758665E1  
 1.960000000000000E9    -4.813112627112290  -8.665506515809332E1  
 1.965000000000000E9    -4.974384722738357  -8.678518454963415E1  
 1.970000000000000E9    -5.175535190571580  -8.686813869118167E1  
 1.975000000000000E9    -5.406970700130130  -8.696640936585855E1  
 1.980000000000000E9    -5.680621285126456  -8.719898592389860E1  
 1.985000000000000E9    -5.998199720108609  -8.751979877973189E1  
 1.990000000000000E9    -6.342414682405272  -8.788970621938297E1  
 1.995000000000000E9    -6.718009946955531  -8.851484266344866E1  
 2.000000000000000E9    -7.119832919168917  -8.925383375810786E1  
 2.005000000000000E9    -7.547157073297995  -9.018999209414707E1  
 2.010000000000000E9    -7.960295059942556  -9.138103233673088E1  
 2.015000000000000E9    -8.352325819694084  -9.287348967867840E1  
 2.020000000000000E9    -8.703721458728291  -9.475042045039184E1  
 2.025000000000000E9    -8.992704303479274  -9.716585851095177E1  
 2.030000000000000E9    -9.222819291761779  -1.001401736819746E2  
 2.035000000000000E9    -9.392987355560932  -1.035537381365769E2  
 2.040000000000000E9    -9.502049601038463  -1.072703594240112E2  
 2.045000000000000E9    -9.523590701374584  -1.109892574693469E2  
 2.050000000000000E9    -9.456875514226661  -1.147177607076498E2  
 2.055000000000000E9    -9.325883928636467  -1.182619254789126E2  
 2.060000000000000E9    -9.130902005297607  -1.213838955552615E2  
 2.065000000000000E9    -8.885442534890448  -1.241551772122741E2  
 2.070000000000000E9    -8.609549193013029  -1.264882381385913E2  
 2.075000000000000E9    -8.322200841280314  -1.283861571245272E2  
 2.080000000000000E9    -8.033747581414332  -1.299058123787340E2  
 2.085000000000000E9    -7.771969869940011  -1.310954176504762E2  
 2.090000000000000E9    -7.541149818307118  -1.319157786478846E2  
 2.095000000000000E9    -7.332331907754258  -1.323285311616800E2  
 2.100000000000000E9    -7.150647087615098  -1.325369895582384E2  
 2.105000000000000E9    -7.012816100961757  -1.325792944896105E2  
 2.110000000000000E9    -6.919377211975685  -1.324390777113364E2  
 2.115000000000000E9    -6.880230880680007  -1.321588434912004E2  
 2.120000000000000E9    -6.892089255163735  -1.317085742260433E2  
 2.125000000000000E9    -6.955191517678951  -1.310743369094615E2  
 2.130000000000000E9    -7.058870000624492  -1.302718733493975E2  
 2.135000000000000E9    -7.194617026270218  -1.293801803742280E2  
 2.140000000000000E9    -7.356695397283926  -1.285119283402205E2  
 2.145000000000000E9    -7.552039741155978  -1.276654229708363E2  
 2.150000000000000E9    -7.778639287763984  -1.268627142819765E2  
 2.155000000000000E9    -8.017637457475791  -1.262129509375279E2  
 2.160000000000000E9    -8.269359867583111  -1.258029104059179E2  
 2.165000000000000E9    -8.534003022316371  -1.257791321961144E2  
 2.170000000000000E9    -8.811242298196984  -1.262804420483839E2  
 2.175000000000000E9    -9.120572233128975  -1.272793752532122E2  
 2.180000000000000E9    -9.435591811861691  -1.288275726380653E2  
 2.185000000000000E9    -9.735598337008909  -1.308290664135410E2  
 2.190000000000000E9    -1.000097663549272E1  -1.335681544300098E2  
 2.195000000000000E9    -1.023918819319574E1  -1.368816148693705E2  
 2.200000000000000E9    -1.041156828730727E1  -1.406150050734574E2  
 2.205000000000000E9    -1.047930901900542E1  -1.447054899861732E2  
 2.210000000000000E9    -1.043411325455514E1  -1.491363433718128E2  
 2.215000000000000E9    -1.031271482317604E1  -1.536484584722913E2  
 2.220000000000000E9    -1.011167248985605E1  -1.579457843850446E2  
 2.225000000000000E9    -9.843112881623000  -1.618267841085263E2  
 2.230000000000000E9    -9.528835398523913  -1.652279438738026E2  
 2.235000000000000E9    -9.200350638808406  -1.681099146585916E2  
 2.240000000000000E9    -8.870203669036146  -1.703715124929412E2  
 2.245000000000000E9    -8.546451522017746  -1.721438235686338E2  
 2.250000000000000E9    -8.266165325561140  -1.734262995912242E2  
 2.255000000000000E9    -8.020790144359120  -1.740697728443988E2  
 2.260000000000000E9    -7.792538717555883  -1.742319889621874E2  
 2.265000000000000E9    -7.582641039774143  -1.739709222797675E2  
 2.270000000000000E9    -7.388871671884322  -1.735393278441037E2  
 2.275000000000000E9    -7.240130912134718  -1.730045008992514E2  
 2.280000000000000E9    -7.151295161845447  -1.722772856123278E2  
 2.285000000000000E9    -7.116688539003727  -1.712998893924354E2  
 2.290000000000000E9    -7.104671018770774  -1.700384945958870E2  
 2.295000000000000E9    -7.109849464636400  -1.686974644124954E2  
 2.300000000000000E9    -7.131178350976673  -1.673686786676257E2  
 2.305000000000000E9    -7.174076881677452  -1.662314240264243E2  
 2.310000000000000E9    -7.269939438252731  -1.653748303715387E2  
 2.315000000000000E9    -7.445941435731760  -1.646900344945152E2  
 2.320000000000000E9    -7.697304822258787  -1.639106061903024E2  
 2.325000000000000E9    -7.974073030763734  -1.630311382976008E2  
 2.330000000000000E9    -8.251411068241730  -1.623092479924156E2  
 2.335000000000000E9    -8.532701446328147  -1.619335247840175E2  
 2.340000000000000E9    -8.832945740506270  -1.621520858822061E2  
 2.345000000000000E9    -9.166445490655431  -1.630443021714247E2  
 2.350000000000000E9    -9.577689083785083  -1.644958625397952E2  
 2.355000000000000E9    -1.002555275477631E1  -1.661839724347356E2  
 2.360000000000000E9    -1.043973821080024E1  -1.682576865077469E2  
 2.365000000000000E9    -1.079894169206262E1  -1.708144925135870E2  
 2.370000000000000E9    -1.104373817193524E1  -1.739734952208358E2  
 2.375000000000000E9    -1.119062151459775E1  -1.781564016229906E2  
 2.380000000000000E9    -1.129950508040203E1   1.768913596373628E2  
 2.385000000000000E9    -1.139919556079925E1   1.719648627875002E2  
 2.390000000000000E9    -1.143893168355116E1   1.677263556366123E2  
 2.395000000000000E9    -1.134632226747460E1   1.643432380065747E2  
 2.400000000000000E9    -1.111899870957253E1   1.616327549363644E2  
 2.405000000000000E9    -1.078757001142746E1   1.592316566545239E2  
 2.410000000000000E9    -1.046183305719334E1   1.570509792182051E2  
 2.415000000000000E9    -1.019239116201720E1   1.554105787837536E2  
 2.420000000000000E9    -9.973708025601894   1.547341459591406E2  
 2.425000000000000E9    -9.750908255941171   1.549470721119677E2  
 2.430000000000000E9    -9.515896472169292   1.557306465422562E2  
 2.435000000000000E9    -9.264965797162748   1.568468661532703E2  
 2.440000000000000E9    -9.027241441789430   1.580139030076367E2  
 2.445000000000000E9    -8.859802244697013   1.592427126083506E2  
 2.450000000000000E9    -8.750885378691052   1.607628081975724E2  
 2.455000000000000E9    -8.696678495657810   1.625543981880020E2  
 2.460000000000000E9    -8.709083774381202   1.646981971614155E2  
 2.465000000000000E9    -8.719487708598734   1.674146945636195E2  
 2.470000000000000E9    -8.692777789687902   1.701598117172053E2  
 2.475000000000000E9    -8.673044305102453   1.725801560250427E2  
 2.480000000000000E9    -8.716297209358208   1.747541013255387E2  
 2.485000000000000E9    -8.819082620519600   1.768381731188529E2  
 2.490000000000000E9    -9.001821285430179   1.789667089552994E2  
 2.495000000000000E9    -9.222146162074523  -1.786804401372581E2  
 2.500000000000000E9    -9.433025867513837  -1.763238346434274E2  
 2.505000000000000E9    -9.643882982039004  -1.745359770661745E2  
 2.510000000000000E9    -9.929773899645186  -1.733802740110915E2  
 2.515000000000000E9    -1.034812601633961E1  -1.727171487030647E2  
 2.520000000000000E9    -1.091728676703013E1  -1.720621246453640E2  
 2.525000000000000E9    -1.156279705142963E1  -1.709275149064172E2  
 2.530000000000000E9    -1.217035633945646E1  -1.696928710032200E2  
 2.535000000000000E9    -1.272272675733543E1  -1.690498295471633E2  
 2.540000000000000E9    -1.326673490033218E1  -1.696986503763824E2  
 2.545000000000000E9    -1.389927976302893E1  -1.714926827615606E2  
 2.550000000000000E9    -1.463356437282825E1  -1.741168501836927E2  
 2.555000000000000E9    -1.539594999038283E1  -1.766096792153654E2  
 2.560000000000000E9    -1.596649656226327E1  -1.791145402060615E2  
 2.565000000000000E9    -1.624939124952193E1   1.777343272227889E2  
 2.570000000000000E9    -1.627920182569263E1   1.734948703084073E2  
 2.575000000000000E9    -1.616227109613031E1   1.686597450820531E2  
 2.580000000000000E9    -1.597324471710048E1   1.641242909315853E2  
 2.585000000000000E9    -1.572436907886303E1   1.610013764877435E2  
 2.590000000000000E9    -1.536427754344195E1   1.595021542276178E2  
 2.595000000000000E9    -1.487008201237186E1   1.593380414620303E2  
 2.600000000000000E9    -1.425982657559257E1   1.600742968569945E2  
 2.605000000000000E9    -1.356548682801871E1   1.611548675411933E2  
 2.610000000000000E9    -1.288134240082585E1   1.620907607158058E2  
 2.615000000000000E9    -1.229729392711666E1   1.632757854661543E2  
 2.620000000000000E9    -1.181426291602697E1   1.648534950356036E2  
 2.625000000000000E9    -1.140833466053019E1   1.672175814189172E2  
 2.630000000000000E9    -1.098110373561035E1   1.702712218282036E2  
 2.635000000000000E9    -1.052026636175167E1   1.734399714462984E2  
 2.640000000000000E9    -1.006252313997231E1   1.762833941313736E2  
 2.645000000000000E9    -9.672392802934471   1.789613947874253E2  
 2.650000000000000E9    -9.366775685448378  -1.784070585249350E2  
 2.655000000000000E9    -9.133069760767063  -1.754643853589863E2  
 2.660000000000000E9    -8.905966108877061  -1.720862910887283E2  
 2.665000000000000E9    -8.621574149866188  -1.687899317197058E2  
 2.670000000000000E9    -8.356279151151657  -1.660709140467575E2  
 2.675000000000000E9    -8.158422285093218  -1.636310625875267E2  
 2.680000000000000E9    -8.024720991505854  -1.614710416491146E2  
 2.685000000000000E9    -7.977792854407316  -1.593424198230370E2  
 2.690000000000000E9    -7.969262982162775  -1.569695589515819E2  
 2.695000000000000E9    -7.947228815955110  -1.546221936704286E2  
 2.700000000000000E9    -7.924918385972332  -1.527153347518766E2  
 2.705000000000000E9    -7.931960992891315  -1.512836131701154E2  
 2.710000000000000E9    -7.994974182536961  -1.503358604796938E2  
 2.715000000000000E9    -8.127400635688735  -1.497191374450328E2  
 2.720000000000000E9    -8.298648350744388  -1.493058520429742E2  
 2.725000000000000E9    -8.495065020964306  -1.491704681039100E2  
 2.730000000000000E9    -8.680960400229655  -1.493358891291084E2  
 2.735000000000000E9    -8.827648273460223  -1.501368779160868E2  
 2.740000000000000E9    -8.948170281214630  -1.518684985550697E2  
 2.745000000000000E9    -9.100979609234178  -1.545435546357294E2  
 2.750000000000000E9    -9.284085591761196  -1.575697125506910E2  
 2.755000000000000E9    -9.422952698566910  -1.606830888180948E2  
 2.760000000000000E9    -9.448193677006101  -1.638448128989717E2  
 2.765000000000000E9    -9.341279900295588  -1.671978100950292E2  
 2.770000000000000E9    -9.115201173897505  -1.707945924748730E2  
 2.775000000000000E9    -8.805464627490039  -1.745161617836027E2  
 2.780000000000000E9    -8.484528422573986  -1.781157859105227E2  
 2.785000000000000E9    -8.150790365710618   1.789399496369044E2  
 2.790000000000000E9    -7.794887120849573   1.766303027029591E2  
 2.795000000000000E9    -7.414462232810060   1.750095028975933E2  
 2.800000000000000E9    -7.007835943891299   1.738930845231663E2  
 2.805000000000000E9    -6.599777318577511   1.731052309225876E2  
 2.810000000000000E9    -6.212757256780505   1.725298757293807E2  
 2.815000000000000E9    -5.879693775855574   1.721439861779123E2  
 2.820000000000000E9    -5.618478401579255   1.721439679460982E2  
 2.825000000000000E9    -5.398733113619516   1.726328146405964E2  
 2.830000000000000E9    -5.186459161927081   1.735133423918971E2  
 2.835000000000000E9    -4.982923606008167   1.745035943921243E2  
 2.840000000000000E9    -4.810868288729759   1.755227802792858E2  
 2.845000000000000E9    -4.664094948171023   1.765600376799754E2  
 2.850000000000000E9    -4.560699837749660   1.775323352693543E2  
 2.855000000000000E9    -4.517618405326074   1.785222145896966E2  
 2.860000000000000E9    -4.516229781424868   1.796850499048868E2  
 2.865000000000000E9    -4.521935111095806  -1.790729374132881E2  
 2.870000000000000E9    -4.530559241117837  -1.779921253846316E2  
 2.875000000000000E9    -4.564242354499074  -1.771717601704886E2  
 2.880000000000000E9    -4.626227034691081  -1.766654159870472E2  
 2.885000000000000E9    -4.733247862859771  -1.765068376089838E2  
 2.890000000000000E9    -4.901213442354423  -1.766000032779730E2  
 2.895000000000000E9    -5.103253098452702  -1.767778800815638E2  
 2.900000000000000E9    -5.303984403545386  -1.771594705058205E2  
 2.905000000000000E9    -5.491958610352088  -1.780035205772761E2  
 2.910000000000000E9    -5.673929885746743  -1.794569735773850E2  
 2.915000000000000E9    -5.877703495232104   1.784570137411710E2  
 2.920000000000000E9    -6.095108586288170   1.759728827254937E2  
 2.925000000000000E9    -6.290188772822225   1.731247934688293E2  
 2.930000000000000E9    -6.460539384930909   1.700090900034740E2  
 2.935000000000000E9    -6.547241879138785   1.667265413164181E2  
 2.940000000000000E9    -6.550145252005425   1.631325651262688E2  
 2.945000000000000E9    -6.494553461034356   1.593234702432721E2  
 2.950000000000000E9    -6.404532161805104   1.555965731951059E2  
