#  HZ   S   DB   R     50.00 
! Rohde & Schwarz ZVB4 2Ports - Version 3.20 - 1145.1010k04 SN: 100175
! Date: 2015-12-02 17:38:51
! Measurement: S11 
! 
 1.950000000000000E9    -3.583156715630667  -1.444832450558184E2  
 1.955000000000000E9    -3.670308397342867  -1.458115212029155E2  
 1.960000000000000E9    -3.775570143749244  -1.473556241223873E2  
 1.965000000000000E9    -3.892693265203466  -1.491767603855805E2  
 1.970000000000000E9    -4.011896243439666  -1.513210619613251E2  
 1.975000000000000E9    -4.138654455432946  -1.537763126198381E2  
 1.980000000000000E9    -4.258364374095854  -1.566336948153335E2  
 1.985000000000000E9    -4.368235521228587  -1.598346498936728E2  
 1.990000000000000E9    -4.450134190235446  -1.633293317300587E2  
 1.995000000000000E9    -4.502865531646831  -1.671130073950098E2  
 2.000000000000000E9    -4.519163284413526  -1.710558789852988E2  
 2.005000000000000E9    -4.494811432007499  -1.751793512176859E2  
 2.010000000000000E9    -4.435543457917947  -1.792937828300956E2  
 2.015000000000000E9    -4.341053879925907   1.766536516764217E2  
 2.020000000000000E9    -4.218372155900978   1.727835597697705E2  
 2.025000000000000E9    -4.078169999128300   1.691666126774548E2  
 2.030000000000000E9    -3.922911500587731   1.658770433602434E2  
 2.035000000000000E9    -3.764942430293173   1.629313377825906E2  
 2.040000000000000E9    -3.610278521748824   1.603504892388955E2  
 2.045000000000000E9    -3.463368523337863   1.581461443033872E2  
 2.050000000000000E9    -3.327744325697771   1.562924382088054E2  
 2.055000000000000E9    -3.208110843606958   1.547540622448770E2  
 2.060000000000000E9    -3.103266643621581   1.534878091358914E2  
 2.065000000000000E9    -3.019546697789013   1.524852991096124E2  
 2.070000000000000E9    -2.952306985153530   1.516804160011096E2  
 2.075000000000000E9    -2.905671607808728   1.510058720417567E2  
 2.080000000000000E9    -2.876943002863515   1.504602482299738E2  
 2.085000000000000E9    -2.867852621933391   1.499631578506094E2  
 2.090000000000000E9    -2.874119810533240   1.494997048541731E2  
 2.095000000000000E9    -2.894355974639460   1.490128143596021E2  
 2.100000000000000E9    -2.928352900984812   1.484060013163471E2  
 2.105000000000000E9    -2.974147266608652   1.476625164805779E2  
 2.110000000000000E9    -3.036389286680129   1.467092505035846E2  
 2.115000000000000E9    -3.106743445084002   1.455529581070742E2  
 2.120000000000000E9    -3.181382458697821   1.441113940473366E2  
 2.125000000000000E9    -3.261850098679608   1.423329797446968E2  
 2.130000000000000E9    -3.338614023704701   1.402128529082939E2  
 2.135000000000000E9    -3.416148277567413   1.377119795167439E2  
 2.140000000000000E9    -3.486797821307413   1.348500395251291E2  
 2.145000000000000E9    -3.543347773996179   1.316874194844939E2  
 2.150000000000000E9    -3.581465484362363   1.282365544875749E2  
 2.155000000000000E9    -3.596373192652586   1.245962078776976E2  
 2.160000000000000E9    -3.586070617879294   1.208559837350494E2  
 2.165000000000000E9    -3.548994418318197   1.170926615431679E2  
 2.170000000000000E9    -3.485169097491318   1.134105957552116E2  
 2.175000000000000E9    -3.396841980527213   1.099223934619751E2  
 2.180000000000000E9    -3.288955411543979   1.067127793031497E2  
 2.185000000000000E9    -3.169711127992637   1.037539931514967E2  
 2.190000000000000E9    -3.046018521879518   1.011238017744879E2  
 2.195000000000000E9    -2.929522771777430   9.887522624686702E1  
 2.200000000000000E9    -2.812795746655848   9.700426157378328E1  
 2.205000000000000E9    -2.701311326673446   9.546347480375775E1  
 2.210000000000000E9    -2.598237445790516   9.422008324028495E1  
 2.215000000000000E9    -2.506580082724687   9.320486770756807E1  
 2.220000000000000E9    -2.432581016736884   9.241343043235091E1  
 2.225000000000000E9    -2.376627986563704   9.177124871798407E1  
 2.230000000000000E9    -2.338815858361613   9.127396487592492E1  
 2.235000000000000E9    -2.317369651399108   9.086787761852703E1  
 2.240000000000000E9    -2.312810837994825   9.048221379956217E1  
 2.245000000000000E9    -2.325178038767383   9.010040176204596E1  
 2.250000000000000E9    -2.353918730844674   8.962993158140829E1  
 2.255000000000000E9    -2.396518015019803   8.904116933954339E1  
 2.260000000000000E9    -2.461921448038597   8.828409404554178E1  
 2.265000000000000E9    -2.537911953696606   8.729232479784879E1  
 2.270000000000000E9    -2.627470693406812   8.601360479216149E1  
 2.275000000000000E9    -2.731502786357877   8.445369923538974E1  
 2.280000000000000E9    -2.845486449132451   8.249479870037575E1  
 2.285000000000000E9    -2.969522190250262   8.013800486480201E1  
 2.290000000000000E9    -3.097233968479105   7.738978462149618E1  
 2.295000000000000E9    -3.220639485937765   7.424582562680313E1  
 2.300000000000000E9    -3.326378711671902   7.071313111131978E1  
 2.305000000000000E9    -3.414219496651204   6.681481648732094E1  
 2.310000000000000E9    -3.475524155855426   6.261777108069267E1  
 2.315000000000000E9    -3.507892801807129   5.827187711209346E1  
 2.320000000000000E9    -3.501067122211717   5.384383000279872E1  
 2.325000000000000E9    -3.459677698632562   4.949100897065780E1  
 2.330000000000000E9    -3.384048688853252   4.529088477280595E1  
 2.335000000000000E9    -3.279204392326597   4.139632852687988E1  
 2.340000000000000E9    -3.152441976374476   3.781021180673923E1  
 2.345000000000000E9    -3.015458758408961   3.465043244179661E1  
 2.350000000000000E9    -2.876341179342576   3.184383760938031E1  
 2.355000000000000E9    -2.740831206745304   2.944727542725351E1  
 2.360000000000000E9    -2.614393656855202   2.745879722082171E1  
 2.365000000000000E9    -2.506613962973542   2.579385367358654E1  
 2.370000000000000E9    -2.415309506006228   2.448220118998703E1  
 2.375000000000000E9    -2.341781294580267   2.343615929111821E1  
 2.380000000000000E9    -2.281356991836030   2.259829346683984E1  
 2.385000000000000E9    -2.245006971995956   2.186473503450696E1  
 2.390000000000000E9    -2.228754589945406   2.121171739568792E1  
 2.395000000000000E9    -2.234860374159748   2.058245165144387E1  
 2.400000000000000E9    -2.265067812846390   1.986768175967932E1  
 2.405000000000000E9    -2.316820705617367   1.909502613108443E1  
 2.410000000000000E9    -2.386355476536035   1.816112130665658E1  
 2.415000000000000E9    -2.471551437086750   1.694174254246785E1  
 2.420000000000000E9    -2.579585332414529   1.544541946459642E1  
 2.425000000000000E9    -2.698986897426740   1.356831217375506E1  
 2.430000000000000E9    -2.835712612831802   1.126096870858723E1  
 2.435000000000000E9    -2.979859443262568   8.485685004870685  
 2.440000000000000E9    -3.124004297160199   5.255854874210754  
 2.445000000000000E9    -3.261444559773365   1.537200491587441  
 2.450000000000000E9    -3.383101588093023  -2.705513693689409  
 2.455000000000000E9    -3.475693413920528  -7.350738403456945  
 2.460000000000000E9    -3.533700032425486  -1.233325131826318E1  
 2.465000000000000E9    -3.548167633224684  -1.756224984930784E1  
 2.470000000000000E9    -3.526187822861326  -2.284640834090249E1  
 2.475000000000000E9    -3.453204290805700  -2.803341770867151E1  
 2.480000000000000E9    -3.349682838804835  -3.293357677093384E1  
 2.485000000000000E9    -3.208106911244190  -3.746514035364086E1  
 2.490000000000000E9    -3.166250028679007  -4.146904643135234E1  
 2.495000000000000E9    -2.992981989347625  -4.503342512484407E1  
 2.500000000000000E9    -2.816209151370420  -4.805761885784025E1  
 2.505000000000000E9    -2.645314992740345  -5.063333851282133E1  
 2.510000000000000E9    -2.486619026666394  -5.276250841323533E1  
 2.515000000000000E9    -2.349634620988824  -5.446873226205957E1  
 2.520000000000000E9    -2.226956936431022  -5.575355713450197E1  
 2.525000000000000E9    -2.120443445969538  -5.674549746574990E1  
 2.530000000000000E9    -2.028230505750367  -5.748819113238362E1  
 2.535000000000000E9    -1.954387584659306  -5.805653033906600E1  
 2.540000000000000E9    -1.897770661230132  -5.849660057657684E1  
 2.545000000000000E9    -1.854916759525897  -5.889482922175846E1  
 2.550000000000000E9    -1.833345934138439  -5.931630583413598E1  
 2.555000000000000E9    -1.826207341487075  -5.980605612485498E1  
 2.560000000000000E9    -1.837876401378398  -6.041127305230604E1  
 2.565000000000000E9    -1.860773681696117  -6.121103791629949E1  
 2.570000000000000E9    -1.898864937509541  -6.225903037926650E1  
 2.575000000000000E9    -1.945571977073803  -6.361403296184518E1  
 2.580000000000000E9    -1.999508724935408  -6.529811977247043E1  
 2.585000000000000E9    -2.057387602513121  -6.743816585973531E1  
 2.590000000000000E9    -2.118064955521094  -6.998277921349015E1  
 2.595000000000000E9    -2.183369288312794  -7.297233512261049E1  
 2.600000000000000E9    -2.234475362508289  -7.631085047073788E1  
 2.605000000000000E9    -2.271864022666750  -8.002599738766345E1  
 2.610000000000000E9    -2.281921464995576  -8.404365763899568E1  
 2.615000000000000E9    -2.272844743547836  -8.827555098767428E1  
 2.620000000000000E9    -2.235120193807203  -9.257697951169986E1  
 2.625000000000000E9    -2.174359647161259  -9.682800740121466E1  
 2.630000000000000E9    -2.090704689985572  -1.009435015276842E2  
 2.635000000000000E9    -1.996273034931958  -1.048043077663550E2  
 2.640000000000000E9    -1.887977325371258  -1.082648093716767E2  
 2.645000000000000E9    -1.768134917210801  -1.113365035532337E2  
 2.650000000000000E9    -1.650494483845546  -1.139798216177171E2  
 2.655000000000000E9    -1.539883175033300  -1.161989795453938E2  
 2.660000000000000E9    -1.434973334832344  -1.179736090794305E2  
 2.665000000000000E9    -1.339842863640424  -1.193756115087684E2  
 2.670000000000000E9    -1.251860644580993  -1.203979059097670E2  
 2.675000000000000E9    -1.179101115480025  -1.210986264992182E2  
 2.680000000000000E9    -1.117530472309658  -1.215513398010254E2  
 2.685000000000000E9    -1.068754400010091  -1.217900824708433E2  
 2.690000000000000E9    -1.032995877298285  -1.218400163096434E2  
 2.695000000000000E9    -1.008645738009397  -1.217711961134290E2  
 2.700000000000000E9    -9.977775093028620E-1  -1.216318286885009E2  
 2.705000000000000E9    -9.950592433888161E-1  -1.214638095906322E2  
 2.710000000000000E9    -1.005810935280048  -1.213161446652065E2  
 2.715000000000000E9    -1.022849307990992  -1.212447794856946E2  
 2.720000000000000E9    -1.051622014123613  -1.212929259062270E2  
 2.725000000000000E9    -1.089623107705356  -1.215061337932882E2  
 2.730000000000000E9    -1.134565700009897  -1.219159539873476E2  
 2.735000000000000E9    -1.187520285061509  -1.225626212981014E2  
 2.740000000000000E9    -1.243886280541721  -1.235017492242399E2  
 2.745000000000000E9    -1.306123254580395  -1.247618442136283E2  
 2.750000000000000E9    -1.368937944043640  -1.263377086266219E2  
 2.755000000000000E9    -1.429551926646441  -1.282741937882028E2  
 2.760000000000000E9    -1.482566167330242  -1.305176600371366E2  
 2.765000000000000E9    -1.531384388217303  -1.330745556996444E2  
 2.770000000000000E9    -1.567894300320205  -1.358749525700186E2  
 2.775000000000000E9    -1.587614979989824  -1.388566336065634E2  
 2.780000000000000E9    -1.590515075528839  -1.419427934237284E2  
 2.785000000000000E9    -1.572877665190581  -1.450641686101934E2  
 2.790000000000000E9    -1.539780904658038  -1.481097244224403E2  
 2.795000000000000E9    -1.489220569795131  -1.510023755737585E2  
 2.800000000000000E9    -1.426222087588520  -1.536488038162511E2  
 2.805000000000000E9    -1.353418271150284  -1.560106222347766E2  
 2.810000000000000E9    -1.274162389816561  -1.580638942979026E2  
 2.815000000000000E9    -1.192575705276760  -1.597514967338567E2  
 2.820000000000000E9    -1.113076932343661  -1.610999529405594E2  
 2.825000000000000E9    -1.037204175714393  -1.621147240620048E2  
 2.830000000000000E9    -9.650752681564599E-1  -1.627824512711789E2  
 2.835000000000000E9    -9.005608333704411E-1  -1.631900453519261E2  
 2.840000000000000E9    -8.450167658815806E-1  -1.633081267834996E2  
 2.845000000000000E9    -7.965689252112185E-1  -1.631918989260559E2  
 2.850000000000000E9    -7.561417205935809E-1  -1.629150925491902E2  
 2.855000000000000E9    -7.255976054037243E-1  -1.624837686279065E2  
 2.860000000000000E9    -7.056707932712525E-1  -1.619528379780213E2  
 2.865000000000000E9    -6.934983393008530E-1  -1.613768546802500E2  
 2.870000000000000E9    -6.903128936228037E-1  -1.607691630072685E2  
 2.875000000000000E9    -6.987174710491290E-1  -1.602002567415818E2  
 2.880000000000000E9    -7.177664953357219E-1  -1.596914070037423E2  
 2.885000000000000E9    -7.415587783477620E-1  -1.592966317608132E2  
 2.890000000000000E9    -7.771443983471540E-1  -1.590773874491349E2  
 2.895000000000000E9    -8.219387411287789E-1  -1.590422765756566E2  
 2.900000000000000E9    -8.736903321380120E-1  -1.592383965794517E2  
 2.905000000000000E9    -9.343506286353147E-1  -1.597146837419323E2  
 2.910000000000000E9    -1.000506313722214  -1.604938962043204E2  
 2.915000000000000E9    -1.071516366082179  -1.615781512771566E2  
 2.920000000000000E9    -1.142672169592634  -1.629835759464360E2  
 2.925000000000000E9    -1.213988705335211  -1.647622011899631E2  
 2.930000000000000E9    -1.283402877868286  -1.668616939773979E2  
 2.935000000000000E9    -1.342232348885425  -1.692671236238898E2  
 2.940000000000000E9    -1.389852762711636  -1.719210839161550E2  
 2.945000000000000E9    -1.428029305097137  -1.747710740677929E2  
 2.950000000000000E9    -1.446037281438756  -1.777320877923482E2  
