# Version 1.00
#
freq[Hz];db:Trc1_S11;ang:Trc1_S11;db:Trc2_S11;ang:Trc2_S11;db:Trc3_S11;ang:Trc3_S11;db:Trc4_S11;ang:Trc4_S11;
1.950000000000000E+009;-3.591994431275676E+000;-1.446421232122351E+002;-3.591994431275676E+000;-1.446421232122351E+002;-3.591994431275676E+000;-1.446421232122351E+002;-3.591994431275676E+000;-1.446421232122351E+002;
1.955000000000000E+009;-3.680883997704447E+000;-1.459710761938786E+002;-3.680883997704447E+000;-1.459710761938786E+002;-3.680883997704447E+000;-1.459710761938786E+002;-3.680883997704447E+000;-1.459710761938786E+002;
1.960000000000000E+009;-3.790302625362837E+000;-1.475121155866391E+002;-3.790302625362837E+000;-1.475121155866391E+002;-3.790302625362837E+000;-1.475121155866391E+002;-3.790302625362837E+000;-1.475121155866391E+002;
1.965000000000000E+009;-3.914097008443186E+000;-1.493264830694412E+002;-3.914097008443186E+000;-1.493264830694412E+002;-3.914097008443186E+000;-1.493264830694412E+002;-3.914097008443186E+000;-1.493264830694412E+002;
1.970000000000000E+009;-4.039532747049550E+000;-1.514599351611841E+002;-4.039532747049550E+000;-1.514599351611841E+002;-4.039532747049550E+000;-1.514599351611841E+002;-4.039532747049550E+000;-1.514599351611841E+002;
1.975000000000000E+009;-4.171328239047204E+000;-1.539173758358359E+002;-4.171328239047204E+000;-1.539173758358359E+002;-4.171328239047204E+000;-1.539173758358359E+002;-4.171328239047204E+000;-1.539173758358359E+002;
1.980000000000000E+009;-4.291887494220111E+000;-1.567472515301213E+002;-4.291887494220111E+000;-1.567472515301213E+002;-4.291887494220111E+000;-1.567472515301213E+002;-4.291887494220111E+000;-1.567472515301213E+002;
1.985000000000000E+009;-4.407151819675249E+000;-1.599057792166560E+002;-4.407151819675249E+000;-1.599057792166560E+002;-4.407151819675249E+000;-1.599057792166560E+002;-4.407151819675249E+000;-1.599057792166560E+002;
1.990000000000000E+009;-4.488471321915676E+000;-1.633711874074393E+002;-4.488471321915676E+000;-1.633711874074393E+002;-4.488471321915676E+000;-1.633711874074393E+002;-4.488471321915676E+000;-1.633711874074393E+002;
1.995000000000000E+009;-4.549220535684742E+000;-1.671481309869049E+002;-4.549220535684742E+000;-1.671481309869049E+002;-4.549220535684742E+000;-1.671481309869049E+002;-4.549220535684742E+000;-1.671481309869049E+002;
2.000000000000000E+009;-4.569870735901143E+000;-1.710554895722072E+002;-4.569870735901143E+000;-1.710554895722072E+002;-4.569870735901143E+000;-1.710554895722072E+002;-4.569870735901143E+000;-1.710554895722072E+002;
2.005000000000000E+009;-4.549535516613373E+000;-1.751331367372667E+002;-4.549535516613373E+000;-1.751331367372667E+002;-4.549535516613373E+000;-1.751331367372667E+002;-4.549535516613373E+000;-1.751331367372667E+002;
2.010000000000000E+009;-4.492965253303220E+000;-1.792088156428055E+002;-4.492965253303220E+000;-1.792088156428055E+002;-4.492965253303220E+000;-1.792088156428055E+002;-4.492965253303220E+000;-1.792088156428055E+002;
2.015000000000000E+009;-4.394265284129054E+000;1.768063109063536E+002;-4.394265284129054E+000;1.768063109063536E+002;-4.394265284129054E+000;1.768063109063536E+002;-4.394265284129054E+000;1.768063109063536E+002;
2.020000000000000E+009;-4.271077061976257E+000;1.729694311116571E+002;-4.271077061976257E+000;1.729694311116571E+002;-4.271077061976257E+000;1.729694311116571E+002;-4.271077061976257E+000;1.729694311116571E+002;
2.025000000000000E+009;-4.126372854448823E+000;1.693881934919966E+002;-4.126372854448823E+000;1.693881934919966E+002;-4.126372854448823E+000;1.693881934919966E+002;-4.126372854448823E+000;1.693881934919966E+002;
2.030000000000000E+009;-3.966058739637001E+000;1.661515741041212E+002;-3.966058739637001E+000;1.661515741041212E+002;-3.966058739637001E+000;1.661515741041212E+002;-3.966058739637001E+000;1.661515741041212E+002;
2.035000000000000E+009;-3.802301775941686E+000;1.632401421306166E+002;-3.802301775941686E+000;1.632401421306166E+002;-3.802301775941686E+000;1.632401421306166E+002;-3.802301775941686E+000;1.632401421306166E+002;
2.040000000000000E+009;-3.639448827947414E+000;1.606915842115281E+002;-3.639448827947414E+000;1.606915842115281E+002;-3.639448827947414E+000;1.606915842115281E+002;-3.639448827947414E+000;1.606915842115281E+002;
2.045000000000000E+009;-3.484378474132654E+000;1.584924164700267E+002;-3.484378474132654E+000;1.584924164700267E+002;-3.484378474132654E+000;1.584924164700267E+002;-3.484378474132654E+000;1.584924164700267E+002;
2.050000000000000E+009;-3.341640960291468E+000;1.566386268470235E+002;-3.341640960291468E+000;1.566386268470235E+002;-3.341640960291468E+000;1.566386268470235E+002;-3.341640960291468E+000;1.566386268470235E+002;
2.055000000000000E+009;-3.214241105535352E+000;1.550781731102458E+002;-3.214241105535352E+000;1.550781731102458E+002;-3.214241105535352E+000;1.550781731102458E+002;-3.214241105535352E+000;1.550781731102458E+002;
2.060000000000000E+009;-3.104995850940127E+000;1.538093904235888E+002;-3.104995850940127E+000;1.538093904235888E+002;-3.104995850940127E+000;1.538093904235888E+002;-3.104995850940127E+000;1.538093904235888E+002;
2.065000000000000E+009;-3.015081308860497E+000;1.527702274624617E+002;-3.015081308860497E+000;1.527702274624617E+002;-3.015081308860497E+000;1.527702274624617E+002;-3.015081308860497E+000;1.527702274624617E+002;
2.070000000000000E+009;-2.942768203012257E+000;1.519530296398041E+002;-2.942768203012257E+000;1.519530296398041E+002;-2.942768203012257E+000;1.519530296398041E+002;-2.942768203012257E+000;1.519530296398041E+002;
2.075000000000000E+009;-2.894545373376852E+000;1.512704271179960E+002;-2.894545373376852E+000;1.512704271179960E+002;-2.894545373376852E+000;1.512704271179960E+002;-2.894545373376852E+000;1.512704271179960E+002;
2.080000000000000E+009;-2.862338569341634E+000;1.507042453172225E+002;-2.862338569341634E+000;1.507042453172225E+002;-2.862338569341634E+000;1.507042453172225E+002;-2.862338569341634E+000;1.507042453172225E+002;
2.085000000000000E+009;-2.850105768674470E+000;1.502028939254720E+002;-2.850105768674470E+000;1.502028939254720E+002;-2.850105768674470E+000;1.502028939254720E+002;-2.850105768674470E+000;1.502028939254720E+002;
2.090000000000000E+009;-2.855469341115092E+000;1.497063042554522E+002;-2.855469341115092E+000;1.497063042554522E+002;-2.855469341115092E+000;1.497063042554522E+002;-2.855469341115092E+000;1.497063042554522E+002;
2.095000000000000E+009;-2.874843545621740E+000;1.491980458501397E+002;-2.874843545621740E+000;1.491980458501397E+002;-2.874843545621740E+000;1.491980458501397E+002;-2.874843545621740E+000;1.491980458501397E+002;
2.100000000000000E+009;-2.906312657631692E+000;1.485854425271153E+002;-2.906312657631692E+000;1.485854425271153E+002;-2.906312657631692E+000;1.485854425271153E+002;-2.906312657631692E+000;1.485854425271153E+002;
2.105000000000000E+009;-2.955997530452362E+000;1.478135647730590E+002;-2.955997530452362E+000;1.478135647730590E+002;-2.955997530452362E+000;1.478135647730590E+002;-2.955997530452362E+000;1.478135647730590E+002;
2.110000000000000E+009;-3.014948939561516E+000;1.468762259861510E+002;-3.014948939561516E+000;1.468762259861510E+002;-3.014948939561516E+000;1.468762259861510E+002;-3.014948939561516E+000;1.468762259861510E+002;
2.115000000000000E+009;-3.083470385621773E+000;1.457037942757650E+002;-3.083470385621773E+000;1.457037942757650E+002;-3.083470385621773E+000;1.457037942757650E+002;-3.083470385621773E+000;1.457037942757650E+002;
2.120000000000000E+009;-3.160612845072593E+000;1.442485696682477E+002;-3.160612845072593E+000;1.442485696682477E+002;-3.160612845072593E+000;1.442485696682477E+002;-3.160612845072593E+000;1.442485696682477E+002;
2.125000000000000E+009;-3.242004729234373E+000;1.424700331473895E+002;-3.242004729234373E+000;1.424700331473895E+002;-3.242004729234373E+000;1.424700331473895E+002;-3.242004729234373E+000;1.424700331473895E+002;
2.130000000000000E+009;-3.320548092899630E+000;1.403504497703897E+002;-3.320548092899630E+000;1.403504497703897E+002;-3.320548092899630E+000;1.403504497703897E+002;-3.320548092899630E+000;1.403504497703897E+002;
2.135000000000000E+009;-3.398600268839226E+000;1.378523923112890E+002;-3.398600268839226E+000;1.378523923112890E+002;-3.398600268839226E+000;1.378523923112890E+002;-3.398600268839226E+000;1.378523923112890E+002;
2.140000000000000E+009;-3.470466096157790E+000;1.350052357083979E+002;-3.470466096157790E+000;1.350052357083979E+002;-3.470466096157790E+000;1.350052357083979E+002;-3.470466096157790E+000;1.350052357083979E+002;
2.145000000000000E+009;-3.527629543221015E+000;1.318652281261041E+002;-3.527629543221015E+000;1.318652281261041E+002;-3.527629543221015E+000;1.318652281261041E+002;-3.527629543221015E+000;1.318652281261041E+002;
2.150000000000000E+009;-3.562750856671313E+000;1.284511495850435E+002;-3.562750856671313E+000;1.284511495850435E+002;-3.562750856671313E+000;1.284511495850435E+002;-3.562750856671313E+000;1.284511495850435E+002;
2.155000000000000E+009;-3.575451384770122E+000;1.248241711695938E+002;-3.575451384770122E+000;1.248241711695938E+002;-3.575451384770122E+000;1.248241711695938E+002;-3.575451384770122E+000;1.248241711695938E+002;
2.160000000000000E+009;-3.561328402386852E+000;1.210897899245334E+002;-3.561328402386852E+000;1.210897899245334E+002;-3.561328402386852E+000;1.210897899245334E+002;-3.561328402386852E+000;1.210897899245334E+002;
2.165000000000000E+009;-3.521564139164167E+000;1.173297629383127E+002;-3.521564139164167E+000;1.173297629383127E+002;-3.521564139164167E+000;1.173297629383127E+002;-3.521564139164167E+000;1.173297629383127E+002;
2.170000000000000E+009;-3.453404824877546E+000;1.136362108837607E+002;-3.453404824877546E+000;1.136362108837607E+002;-3.453404824877546E+000;1.136362108837607E+002;-3.453404824877546E+000;1.136362108837607E+002;
2.175000000000000E+009;-3.363961347672321E+000;1.101425356159467E+002;-3.363961347672321E+000;1.101425356159467E+002;-3.363961347672321E+000;1.101425356159467E+002;-3.363961347672321E+000;1.101425356159467E+002;
2.180000000000000E+009;-3.257614365582103E+000;1.068814838088168E+002;-3.257614365582103E+000;1.068814838088168E+002;-3.257614365582103E+000;1.068814838088168E+002;-3.257614365582103E+000;1.068814838088168E+002;
2.185000000000000E+009;-3.137563284778430E+000;1.039279413261826E+002;-3.137563284778430E+000;1.039279413261826E+002;-3.137563284778430E+000;1.039279413261826E+002;-3.137563284778430E+000;1.039279413261826E+002;
2.190000000000000E+009;-3.013568752556043E+000;1.012905331498096E+002;-3.013568752556043E+000;1.012905331498096E+002;-3.013568752556043E+000;1.012905331498096E+002;-3.013568752556043E+000;1.012905331498096E+002;
2.195000000000000E+009;-2.894399348075796E+000;9.903874971745684E+001;-2.894399348075796E+000;9.903874971745684E+001;-2.894399348075796E+000;9.903874971745684E+001;-2.894399348075796E+000;9.903874971745684E+001;
2.200000000000000E+009;-2.776904435017229E+000;9.714784083545361E+001;-2.776904435017229E+000;9.714784083545361E+001;-2.776904435017229E+000;9.714784083545361E+001;-2.776904435017229E+000;9.714784083545361E+001;
2.205000000000000E+009;-2.664217801458094E+000;9.558647568340209E+001;-2.664217801458094E+000;9.558647568340209E+001;-2.664217801458094E+000;9.558647568340209E+001;-2.664217801458094E+000;9.558647568340209E+001;
2.210000000000000E+009;-2.562144225663797E+000;9.430161352645041E+001;-2.562144225663797E+000;9.430161352645041E+001;-2.562144225663797E+000;9.430161352645041E+001;-2.562144225663797E+000;9.430161352645041E+001;
2.215000000000000E+009;-2.471713122427526E+000;9.328825767247486E+001;-2.471713122427526E+000;9.328825767247486E+001;-2.471713122427526E+000;9.328825767247486E+001;-2.471713122427526E+000;9.328825767247486E+001;
2.220000000000000E+009;-2.397987742132707E+000;9.248921136979389E+001;-2.397987742132707E+000;9.248921136979389E+001;-2.397987742132707E+000;9.248921136979389E+001;-2.397987742132707E+000;9.248921136979389E+001;
2.225000000000000E+009;-2.341891339008286E+000;9.183311095657213E+001;-2.341891339008286E+000;9.183311095657213E+001;-2.341891339008286E+000;9.183311095657213E+001;-2.341891339008286E+000;9.183311095657213E+001;
2.230000000000000E+009;-2.299445845498502E+000;9.130820093359148E+001;-2.299445845498502E+000;9.130820093359148E+001;-2.299445845498502E+000;9.130820093359148E+001;-2.299445845498502E+000;9.130820093359148E+001;
2.235000000000000E+009;-2.280449849209284E+000;9.089558155574142E+001;-2.280449849209284E+000;9.089558155574142E+001;-2.280449849209284E+000;9.089558155574142E+001;-2.280449849209284E+000;9.089558155574142E+001;
2.240000000000000E+009;-2.277608211156292E+000;9.047432130974389E+001;-2.277608211156292E+000;9.047432130974389E+001;-2.277608211156292E+000;9.047432130974389E+001;-2.277608211156292E+000;9.047432130974389E+001;
2.245000000000000E+009;-2.288139140041975E+000;9.006214404094460E+001;-2.288139140041975E+000;9.006214404094460E+001;-2.288139140041975E+000;9.006214404094460E+001;-2.288139140041975E+000;9.006214404094460E+001;
2.250000000000000E+009;-2.318401744896087E+000;8.957625753056367E+001;-2.318401744896087E+000;8.957625753056367E+001;-2.318401744896087E+000;8.957625753056367E+001;-2.318401744896087E+000;8.957625753056367E+001;
2.255000000000000E+009;-2.364390924072431E+000;8.895427201089578E+001;-2.364390924072431E+000;8.895427201089578E+001;-2.364390924072431E+000;8.895427201089578E+001;-2.364390924072431E+000;8.895427201089578E+001;
2.260000000000000E+009;-2.428914660721175E+000;8.820423076030299E+001;-2.428914660721175E+000;8.820423076030299E+001;-2.428914660721175E+000;8.820423076030299E+001;-2.428914660721175E+000;8.820423076030299E+001;
2.265000000000000E+009;-2.505733387904964E+000;8.720718650627842E+001;-2.505733387904964E+000;8.720718650627842E+001;-2.505733387904964E+000;8.720718650627842E+001;-2.505733387904964E+000;8.720718650627842E+001;
2.270000000000000E+009;-2.595040507392660E+000;8.589556054889140E+001;-2.595040507392660E+000;8.589556054889140E+001;-2.595040507392660E+000;8.589556054889140E+001;-2.595040507392660E+000;8.589556054889140E+001;
2.275000000000000E+009;-2.703442008851170E+000;8.429123562922936E+001;-2.703442008851170E+000;8.429123562922936E+001;-2.703442008851170E+000;8.429123562922936E+001;-2.703442008851170E+000;8.429123562922936E+001;
2.280000000000000E+009;-2.821806694637266E+000;8.232103155506624E+001;-2.821806694637266E+000;8.232103155506624E+001;-2.821806694637266E+000;8.232103155506624E+001;-2.821806694637266E+000;8.232103155506624E+001;
2.285000000000000E+009;-2.949176912564564E+000;7.996915742630648E+001;-2.949176912564564E+000;7.996915742630648E+001;-2.949176912564564E+000;7.996915742630648E+001;-2.949176912564564E+000;7.996915742630648E+001;
2.290000000000000E+009;-3.082379067985530E+000;7.724696645119147E+001;-3.082379067985530E+000;7.724696645119147E+001;-3.082379067985530E+000;7.724696645119147E+001;-3.082379067985530E+000;7.724696645119147E+001;
2.295000000000000E+009;-3.206011942116445E+000;7.411888292368408E+001;-3.206011942116445E+000;7.411888292368408E+001;-3.206011942116445E+000;7.411888292368408E+001;-3.206011942116445E+000;7.411888292368408E+001;
2.300000000000000E+009;-3.311120530701521E+000;7.059068069359415E+001;-3.311120530701521E+000;7.059068069359415E+001;-3.311120530701521E+000;7.059068069359415E+001;-3.311120530701521E+000;7.059068069359415E+001;
2.305000000000000E+009;-3.398531940043565E+000;6.670692836166067E+001;-3.398531940043565E+000;6.670692836166067E+001;-3.398531940043565E+000;6.670692836166067E+001;-3.398531940043565E+000;6.670692836166067E+001;
2.310000000000000E+009;-3.459943562022252E+000;6.251397091599187E+001;-3.459943562022252E+000;6.251397091599187E+001;-3.459943562022252E+000;6.251397091599187E+001;-3.459943562022252E+000;6.251397091599187E+001;
2.315000000000000E+009;-3.487131690947591E+000;5.817197506753643E+001;-3.487131690947591E+000;5.817197506753643E+001;-3.487131690947591E+000;5.817197506753643E+001;-3.487131690947591E+000;5.817197506753643E+001;
2.320000000000000E+009;-3.479005691549231E+000;5.374081805902439E+001;-3.479005691549231E+000;5.374081805902439E+001;-3.479005691549231E+000;5.374081805902439E+001;-3.479005691549231E+000;5.374081805902439E+001;
2.325000000000000E+009;-3.435199553930327E+000;4.935120927140723E+001;-3.435199553930327E+000;4.935120927140723E+001;-3.435199553930327E+000;4.935120927140723E+001;-3.435199553930327E+000;4.935120927140723E+001;
2.330000000000000E+009;-3.360642350686482E+000;4.514883285688774E+001;-3.360642350686482E+000;4.514883285688774E+001;-3.360642350686482E+000;4.514883285688774E+001;-3.360642350686482E+000;4.514883285688774E+001;
2.335000000000000E+009;-3.260960394560077E+000;4.120299355370889E+001;-3.260960394560077E+000;4.120299355370889E+001;-3.260960394560077E+000;4.120299355370889E+001;-3.260960394560077E+000;4.120299355370889E+001;
2.340000000000000E+009;-3.141996501256485E+000;3.760880861891687E+001;-3.141996501256485E+000;3.760880861891687E+001;-3.141996501256485E+000;3.760880861891687E+001;-3.141996501256485E+000;3.760880861891687E+001;
2.345000000000000E+009;-3.007736535037920E+000;3.443377130205823E+001;-3.007736535037920E+000;3.443377130205823E+001;-3.007736535037920E+000;3.443377130205823E+001;-3.007736535037920E+000;3.443377130205823E+001;
2.350000000000000E+009;-2.877129409520170E+000;3.162288037909882E+001;-2.877129409520170E+000;3.162288037909882E+001;-2.877129409520170E+000;3.162288037909882E+001;-2.877129409520170E+000;3.162288037909882E+001;
2.355000000000000E+009;-2.744880531574456E+000;2.926990849455470E+001;-2.744880531574456E+000;2.926990849455470E+001;-2.744880531574456E+000;2.926990849455470E+001;-2.744880531574456E+000;2.926990849455470E+001;
2.360000000000000E+009;-2.624734572934409E+000;2.728273700995836E+001;-2.624734572934409E+000;2.728273700995836E+001;-2.624734572934409E+000;2.728273700995836E+001;-2.624734572934409E+000;2.728273700995836E+001;
2.365000000000000E+009;-2.521383721885668E+000;2.566079392884815E+001;-2.521383721885668E+000;2.566079392884815E+001;-2.521383721885668E+000;2.566079392884815E+001;-2.521383721885668E+000;2.566079392884815E+001;
2.370000000000000E+009;-2.430799813982427E+000;2.438168129137013E+001;-2.430799813982427E+000;2.438168129137013E+001;-2.430799813982427E+000;2.438168129137013E+001;-2.430799813982427E+000;2.438168129137013E+001;
2.375000000000000E+009;-2.357878599178031E+000;2.335442674692887E+001;-2.357878599178031E+000;2.335442674692887E+001;-2.357878599178031E+000;2.335442674692887E+001;-2.357878599178031E+000;2.335442674692887E+001;
2.380000000000000E+009;-2.300008355198191E+000;2.253607884135213E+001;-2.300008355198191E+000;2.253607884135213E+001;-2.300008355198191E+000;2.253607884135213E+001;-2.300008355198191E+000;2.253607884135213E+001;
2.385000000000000E+009;-2.265503635355908E+000;2.183767212201812E+001;-2.265503635355908E+000;2.183767212201812E+001;-2.265503635355908E+000;2.183767212201812E+001;-2.265503635355908E+000;2.183767212201812E+001;
2.390000000000000E+009;-2.247966905636889E+000;2.122033321533454E+001;-2.247966905636889E+000;2.122033321533454E+001;-2.247966905636889E+000;2.122033321533454E+001;-2.247966905636889E+000;2.122033321533454E+001;
2.395000000000000E+009;-2.257850672304488E+000;2.059132395830574E+001;-2.257850672304488E+000;2.059132395830574E+001;-2.257850672304488E+000;2.059132395830574E+001;-2.257850672304488E+000;2.059132395830574E+001;
2.400000000000000E+009;-2.282367036526973E+000;1.993369439513523E+001;-2.282367036526973E+000;1.993369439513523E+001;-2.282367036526973E+000;1.993369439513523E+001;-2.282367036526973E+000;1.993369439513523E+001;
2.405000000000000E+009;-2.332074547095845E+000;1.917853770181373E+001;-2.332074547095845E+000;1.917853770181373E+001;-2.332074547095845E+000;1.917853770181373E+001;-2.332074547095845E+000;1.917853770181373E+001;
2.410000000000000E+009;-2.397550277092864E+000;1.825623639971485E+001;-2.397550277092864E+000;1.825623639971485E+001;-2.397550277092864E+000;1.825623639971485E+001;-2.397550277092864E+000;1.825623639971485E+001;
