#  HZ   S   DB   R     50.00 
! Rohde & Schwarz ZVB4 2Ports - Version 3.20 - 1145.1010k04 SN: 100175
! Date: 2015-12-02 18:28:15
! Measurement: S11 
! 
 1.950000000000000E9    -4.905012820582307  -8.651159264434102E1  
 1.955000000000000E9    -4.976284468431345  -8.650255650243852E1  
 1.960000000000000E9    -5.088430818230683  -8.642359980071579E1  
 1.965000000000000E9    -5.232951736105257  -8.633044406074939E1  
 1.970000000000000E9    -5.414646517631311  -8.625682470440667E1  
 1.975000000000000E9    -5.622745739124532  -8.620146640266989E1  
 1.980000000000000E9    -5.867716700718408  -8.635931546194591E1  
 1.985000000000000E9    -6.154704237226193  -8.661752922523614E1  
 1.990000000000000E9    -6.474790852822506  -8.706523633014533E1  
 1.995000000000000E9    -6.843130761845794  -8.774654724252189E1  
 2.000000000000000E9    -7.239384978580776  -8.855556772786713E1  
 2.005000000000000E9    -7.658100954336256  -8.955426726631882E1  
 2.010000000000000E9    -8.068511500900154  -9.088550418328575E1  
 2.015000000000000E9    -8.477267467267806  -9.256560489516258E1  
 2.020000000000000E9    -8.859118122778996  -9.462788306966252E1  
 2.025000000000000E9    -9.199407800724504  -9.706588467030460E1  
 2.030000000000000E9    -9.473306348518834  -9.992506072012286E1  
 2.035000000000000E9    -9.660832515495260  -1.031606531399384E2  
 2.040000000000000E9    -9.771822795271360  -1.067562769409392E2  
 2.045000000000000E9    -9.787917235998879  -1.105261588833701E2  
 2.050000000000000E9    -9.742048420869690  -1.143301099465646E2  
 2.055000000000000E9    -9.634966934813104  -1.177591892697037E2  
 2.060000000000000E9    -9.441645481043878  -1.207207025787527E2  
 2.065000000000000E9    -9.178929738716638  -1.233330756908834E2  
 2.070000000000000E9    -8.876006466185707  -1.256242890945103E2  
 2.075000000000000E9    -8.576493118714812  -1.275644132480291E2  
 2.080000000000000E9    -8.284948254107844  -1.290420004691870E2  
 2.085000000000000E9    -8.020974311569285  -1.301261167749362E2  
 2.090000000000000E9    -7.780237707405685  -1.307642786754488E2  
 2.095000000000000E9    -7.550463557747034  -1.310104677834125E2  
 2.100000000000000E9    -7.339441746428351  -1.310980518515844E2  
 2.105000000000000E9    -7.172075192413123  -1.311043649312565E2  
 2.110000000000000E9    -7.065503229692970  -1.309355485489889E2  
 2.115000000000000E9    -7.008237213648492  -1.305369872074403E2  
 2.120000000000000E9    -6.997019575404721  -1.299652899081185E2  
 2.125000000000000E9    -7.021291732795852  -1.292174339785367E2  
 2.130000000000000E9    -7.081450594369397  -1.284102080775639E2  
 2.135000000000000E9    -7.182007715898789  -1.276715737216516E2  
 2.140000000000000E9    -7.337047360450870  -1.268921916450358E2  
 2.145000000000000E9    -7.527684775290741  -1.260356127044169E2  
 2.150000000000000E9    -7.735407921743738  -1.251356150352043E2  
 2.155000000000000E9    -7.936944866394940  -1.244671380829137E2  
 2.160000000000000E9    -8.167748369547187  -1.241867369765558E2  
 2.165000000000000E9    -8.414671479008005  -1.242370995770413E2  
 2.170000000000000E9    -8.693628951320429  -1.248266217647021E2  
 2.175000000000000E9    -8.999623118951211  -1.258999690295155E2  
 2.180000000000000E9    -9.329737024999030  -1.274311779108452E2  
 2.185000000000000E9    -9.652511153959132  -1.293602356021668E2  
 2.190000000000000E9    -9.932589730361759  -1.319529303698198E2  
 2.195000000000000E9    -1.019105336185566E1  -1.350919006355089E2  
 2.200000000000000E9    -1.037844876733080E1  -1.385677807329303E2  
 2.205000000000000E9    -1.044378625026282E1  -1.424241658903226E2  
 2.210000000000000E9    -1.041621891908587E1  -1.467595401756637E2  
 2.215000000000000E9    -1.030572309115546E1  -1.511146532725881E2  
 2.220000000000000E9    -1.012431718125272E1  -1.552086103156799E2  
 2.225000000000000E9    -9.852498103322349  -1.588342393577218E2  
 2.230000000000000E9    -9.513161777841971  -1.621152712800028E2  
 2.235000000000000E9    -9.154334033688345  -1.649026992434972E2  
 2.240000000000000E9    -8.782501856789560  -1.671364996688051E2  
 2.245000000000000E9    -8.417070030515252  -1.689264141186086E2  
 2.250000000000000E9    -8.090918098693003  -1.702658794614328E2  
 2.255000000000000E9    -7.785607671977639  -1.709810203493121E2  
 2.260000000000000E9    -7.501689654358883  -1.713732952868347E2  
 2.265000000000000E9    -7.247633965036548  -1.713857999858570E2  
 2.270000000000000E9    -7.013250802580507  -1.712500240084840E2  
 2.275000000000000E9    -6.824854005955363  -1.710518003852315E2  
 2.280000000000000E9    -6.705342159660563  -1.706714860458081E2  
 2.285000000000000E9    -6.639136604912694  -1.700305669177200E2  
 2.290000000000000E9    -6.607555562515115  -1.692046776759895E2  
 2.295000000000000E9    -6.608649596177405  -1.682578364829161E2  
 2.300000000000000E9    -6.624787429352573  -1.672490379877748E2  
 2.305000000000000E9    -6.660437884659872  -1.664162947197182E2  
 2.310000000000000E9    -6.749865350033574  -1.658401566224632E2  
 2.315000000000000E9    -6.909628160034954  -1.654454457153168E2  
 2.320000000000000E9    -7.131366310045070  -1.649940273963360E2  
 2.325000000000000E9    -7.364871909402329  -1.646095660387478E2  
 2.330000000000000E9    -7.621396623303576  -1.645751660655626E2  
 2.335000000000000E9    -7.917453436743840  -1.649450469712538E2  
 2.340000000000000E9    -8.245667100166559  -1.658033381560458E2  
 2.345000000000000E9    -8.613632337265180  -1.672430546725466E2  
 2.350000000000000E9    -9.052209870234670  -1.692135218331833E2  
 2.355000000000000E9    -9.526855180136913  -1.713551272737359E2  
 2.360000000000000E9    -9.952938813083271  -1.738694829329522E2  
 2.365000000000000E9    -1.031724031744265E1  -1.769985968024705E2  
 2.370000000000000E9    -1.060946372398229E1   1.792872359194984E2  
 2.375000000000000E9    -1.082214102657552E1   1.749768694450322E2  
 2.380000000000000E9    -1.095340911220202E1   1.701776764488995E2  
 2.385000000000000E9    -1.105473703310589E1   1.653412265127165E2  
 2.390000000000000E9    -1.109676822354381E1   1.612949380899187E2  
 2.395000000000000E9    -1.100410392296165E1   1.580314735808495E2  
 2.400000000000000E9    -1.078648922073611E1   1.552511670001700E2  
 2.405000000000000E9    -1.051410380718649E1   1.527125559483485E2  
 2.410000000000000E9    -1.027419888619094E1   1.506735697556910E2  
 2.415000000000000E9    -1.006811800052286E1   1.493292369678557E2  
 2.420000000000000E9    -9.889523096840481   1.487458480636027E2  
 2.425000000000000E9    -9.748643015527291   1.488966045267054E2  
 2.430000000000000E9    -9.617042734949559   1.497834070694348E2  
 2.435000000000000E9    -9.456401997729579   1.511312638270484E2  
 2.440000000000000E9    -9.315399517038419   1.524898203888739E2  
 2.445000000000000E9    -9.256797534347605   1.540632107782421E2  
 2.450000000000000E9    -9.242640673820668   1.561129275387280E2  
 2.455000000000000E9    -9.260139172402640   1.584293177236272E2  
 2.460000000000000E9    -9.332759963778482   1.610710019323696E2  
 2.465000000000000E9    -9.403580017731635   1.643032747484351E2  
 2.470000000000000E9    -9.429304661291386   1.675660913789840E2  
 2.475000000000000E9    -9.473461168645804   1.704705399465029E2  
 2.480000000000000E9    -9.588762245902093   1.734037530939512E2  
 2.485000000000000E9    -9.730571536951707   1.763455451179172E2  
 2.490000000000000E9    -9.940456057666038   1.792375515222396E2  
 2.495000000000000E9    -1.016240749735612E1  -1.775843774409756E2  
 2.500000000000000E9    -1.036449746079938E1  -1.744823368259324E2  
 2.505000000000000E9    -1.058457303302631E1  -1.720090245593861E2  
 2.510000000000000E9    -1.090694173592892E1  -1.699624107106408E2  
 2.515000000000000E9    -1.132478667287451E1  -1.680055306839180E2  
 2.520000000000000E9    -1.182378618223337E1  -1.660227587632502E2  
 2.525000000000000E9    -1.236971025888892E1  -1.638518489398929E2  
 2.530000000000000E9    -1.289287009989091E1  -1.617531140838261E2  
 2.535000000000000E9    -1.336866439907769E1  -1.602231726562886E2  
 2.540000000000000E9    -1.385625932854947E1  -1.600551182644465E2  
 2.545000000000000E9    -1.447814385988098E1  -1.606443234304997E2  
 2.550000000000000E9    -1.512953810963592E1  -1.615005812884000E2  
 2.555000000000000E9    -1.571295899909056E1  -1.627407575630564E2  
 2.560000000000000E9    -1.612178960148430E1  -1.647979986548626E2  
 2.565000000000000E9    -1.631443093836550E1  -1.681463941871978E2  
 2.570000000000000E9    -1.635396064334017E1  -1.731028414610369E2  
 2.575000000000000E9    -1.632923098721299E1  -1.785154105918399E2  
 2.580000000000000E9    -1.619702747224504E1   1.768053434459660E2  
 2.585000000000000E9    -1.591218234386281E1   1.733418766177575E2  
 2.590000000000000E9    -1.543915809657082E1   1.713326601568491E2  
 2.595000000000000E9    -1.479935221807962E1   1.701139278830378E2  
 2.600000000000000E9    -1.408944952361807E1   1.694905230597651E2  
 2.605000000000000E9    -1.338436656381073E1   1.693779724093269E2  
 2.610000000000000E9    -1.270234335628163E1   1.698058679515632E2  
 2.615000000000000E9    -1.205195922792582E1   1.708169521222115E2  
 2.620000000000000E9    -1.143485727804811E1   1.720780707849924E2  
 2.625000000000000E9    -1.089455157452486E1   1.736945391125306E2  
 2.630000000000000E9    -1.036889611101079E1   1.758084952781981E2  
 2.635000000000000E9    -9.855983189571340   1.779472220555718E2  
 2.640000000000000E9    -9.402278132433981  -1.799617016781017E2  
 2.645000000000000E9    -8.997247257431782  -1.777474527332972E2  
 2.650000000000000E9    -8.637879498506468  -1.755392893290210E2  
 2.655000000000000E9    -8.341496722787435  -1.733062951753315E2  
 2.660000000000000E9    -8.084184383407136  -1.708366885815460E2  
 2.665000000000000E9    -7.819492888331123  -1.684346944208009E2  
 2.670000000000000E9    -7.600036195623759  -1.664137793569347E2  
 2.675000000000000E9    -7.444593917523893  -1.644316860005057E2  
 2.680000000000000E9    -7.336170110907100  -1.625908852561387E2  
 2.685000000000000E9    -7.281950593671692  -1.608524422003353E2  
 2.690000000000000E9    -7.278956629272040  -1.591973915055567E2  
 2.695000000000000E9    -7.313772392994135  -1.575260263748448E2  
 2.700000000000000E9    -7.357546438685963  -1.560907226206232E2  
 2.705000000000000E9    -7.435359527613573  -1.549980826395792E2  
 2.710000000000000E9    -7.552494936826321  -1.542250206960786E2  
 2.715000000000000E9    -7.700758905068635  -1.538419959808345E2  
 2.720000000000000E9    -7.895241821264291  -1.539039554647583E2  
 2.725000000000000E9    -8.141707647700160  -1.542799079108891E2  
 2.730000000000000E9    -8.401753368198433  -1.548193846104925E2  
 2.735000000000000E9    -8.615702881196775  -1.558215548302997E2  
 2.740000000000000E9    -8.791147145172632  -1.576602983260759E2  
 2.745000000000000E9    -8.976944669110429  -1.603099972243747E2  
 2.750000000000000E9    -9.156373274034017  -1.633339226027403E2  
 2.755000000000000E9    -9.278463726772760  -1.666457351544614E2  
 2.760000000000000E9    -9.329530759091545  -1.701343724333819E2  
 2.765000000000000E9    -9.279463980813759  -1.735431359995805E2  
 2.770000000000000E9    -9.103640075861570  -1.768717103008150E2  
 2.775000000000000E9    -8.822383350964667   1.797878460857506E2  
 2.780000000000000E9    -8.514629600474478   1.764876211011588E2  
 2.785000000000000E9    -8.211661118770476   1.737941865380830E2  
 2.790000000000000E9    -7.888793672685440   1.718713820024449E2  
 2.795000000000000E9    -7.538101762827700   1.705636555423867E2  
 2.800000000000000E9    -7.176666098577343   1.697294035867829E2  
 2.805000000000000E9    -6.820082031713627   1.693734017570747E2  
 2.810000000000000E9    -6.465160307633682   1.693368976907192E2  
 2.815000000000000E9    -6.139935392397891   1.694830033180243E2  
 2.820000000000000E9    -5.860357511991467   1.698860127566654E2  
 2.825000000000000E9    -5.622785852011433   1.706156009343966E2  
 2.830000000000000E9    -5.397441958133594   1.715758971090341E2  
 2.835000000000000E9    -5.202066844485327   1.726087571314839E2  
 2.840000000000000E9    -5.048111953475278   1.737405951503708E2  
 2.845000000000000E9    -4.918843235071100   1.749245370353377E2  
 2.850000000000000E9    -4.829196776047859   1.760322908083591E2  
 2.855000000000000E9    -4.794820844815429   1.771616922672396E2  
 2.860000000000000E9    -4.804482408755458   1.784371926850916E2  
 2.865000000000000E9    -4.829375824927480   1.797762963606329E2  
 2.870000000000000E9    -4.860873847634717  -1.790155779416863E2  
 2.875000000000000E9    -4.916009709986128  -1.780135478466205E2  
 2.880000000000000E9    -4.998129884857772  -1.773262095781776E2  
 2.885000000000000E9    -5.124807628559566  -1.769676560647296E2  
 2.890000000000000E9    -5.303782386713408  -1.768230598297151E2  
 2.895000000000000E9    -5.509656610759211  -1.768411023369828E2  
 2.900000000000000E9    -5.725421795043467  -1.770882101073963E2  
 2.905000000000000E9    -5.933714499614847  -1.777680807556695E2  
 2.910000000000000E9    -6.130925851772892  -1.790298209427944E2  
 2.915000000000000E9    -6.346314299983077   1.790885035013978E2  
 2.920000000000000E9    -6.573412538451107   1.767844514677589E2  
 2.925000000000000E9    -6.768786588116607   1.741318992261645E2  
 2.930000000000000E9    -6.928829148824804   1.710295722201177E2  
 2.935000000000000E9    -7.020671124332012   1.677634787980082E2  
 2.940000000000000E9    -7.031636136833463   1.642780575959110E2  
 2.945000000000000E9    -6.954407171880579   1.605596663804895E2  
 2.950000000000000E9    -6.843184907927419   1.567552716988647E2  
